# Hz S RI R 50
10000000	0.012303786	-0.00106995	-0.000313659	0.00003947	-0.000313659	0.00003947	0.012303786	-0.00106995
12400000	0.010341208	-0.00964573	0.000034035	-0.000206435	0.000034035	-0.000206435	0.010341208	-0.00964573
14800000	0.001907708	-0.005656629	-0.00006952	0.00016217	-0.00006952	0.00016217	0.001907708	-0.005656629
17200000	0.006433906	0.003250345	0.000142475	-0.000130967	0.000142475	-0.000130967	0.006433906	0.003250345
19600000	0.014367186	-0.001620749	-0.000081833	-0.000014759	-0.000081833	-0.000014759	0.014367186	-0.001620749
22000000	0.009682498	-0.008642266	0.000010828	9.94e-7	0.000010828	9.94e-7	0.009682498	-0.008642266
24400000	0.003535596	-0.004225418	0.000010793	-0.000032034	0.000010793	-0.000032034	0.003535596	-0.004225418
26800000	0.007509135	0.000654822	0.000187578	-0.000108883	0.000187578	-0.000108883	0.007509135	0.000654822
29200000	0.010643208	-0.00383867	-0.000178449	-0.000113696	-0.000178449	-0.000113696	0.010643208	-0.00383867
31600000	0.004697565	-0.004990146	0.000185079	-0.000083989	0.000185079	-0.000083989	0.004697565	-0.004990146
34000000	0.004162758	0.002495907	-0.000021694	0.000018095	-0.000021694	0.000018095	0.004162758	0.002495907
36400000	0.012856104	0.003927597	0.000117373	-0.00007943	0.000117373	-0.00007943	0.012856104	0.003927597
38800000	0.014612124	-0.005281758	0.000109944	0.000113141	0.000109944	0.000113141	0.014612124	-0.005281758
41200000	0.006043151	-0.006185087	-0.000099219	-0.000023501	-0.000099219	-0.000023501	0.006043151	-0.006185087
43600000	0.005037262	0.002943029	-0.000022612	0.000017162	-0.000022612	0.000017162	0.005037262	0.002943029
46000000	0.014864274	0.004460536	0.000097869	-0.000045497	0.000097869	-0.000045497	0.014864274	0.004460536
48400000	0.016776342	-0.004733242	-0.000009369	0.00001714	-0.000009369	0.00001714	0.016776342	-0.004733242
50800000	0.008481856	-0.006929829	-0.000118001	-0.000099128	-0.000118001	-0.000099128	0.008481856	-0.006929829
53200000	0.007123976	0.002050713	0.000183828	-0.000118973	0.000183828	-0.000118973	0.007123976	0.002050713
55600000	0.01580589	0.002965768	0.000206982	-0.000198445	0.000206982	-0.000198445	0.01580589	0.002965768
58000000	0.01649341	-0.00489481	0.000173309	0.000177512	0.000173309	0.000177512	0.01649341	-0.00489481
60400000	0.00974194	-0.003438735	-0.000031244	-0.000075224	-0.000031244	-0.000075224	0.00974194	-0.003438735
62800000	0.012476092	0.004961048	0.000107223	0.000049005	0.000107223	0.000049005	0.012476092	0.004961048
65200000	0.02317362	0.003261657	0.000014302	-0.000066547	0.000014302	-0.000066547	0.02317362	0.003261657
67600000	0.0232255	-0.006614666	0.000003619	-0.000118702	0.000003619	-0.000118702	0.0232255	-0.006614666
70000000	0.015274012	-0.006249191	-0.000030492	0.000075992	-0.000030492	0.000075992	0.015274012	-0.006249191
72400000	0.018656434	0.00174323	0.000145941	0.0000304	0.000145941	0.0000304	0.018656434	0.00174323
74800000	0.028907674	-0.001844105	-0.000103783	0.000139148	-0.000103783	0.000139148	0.028907674	-0.001844105
77200000	0.02847964	-0.01273923	-0.000030776	0.000198045	-0.000030776	0.000198045	0.02847964	-0.01273923
79600000	0.020069378	-0.01319278	-0.000158162	-0.000091622	-0.000158162	-0.000091622	0.020069378	-0.01319278
82000000	0.020832082	-0.006673873	-0.000112067	0.000216378	-0.000112067	0.000216378	0.020832082	-0.006673873
84400000	0.028558832	-0.0081983	0.000022178	3.9e-8	0.000022178	3.9e-8	0.028558832	-0.0081983
86800000	0.02861558	-0.016198078	0.000142349	-0.000035204	0.000142349	-0.000035204	0.02861558	-0.016198078
89200000	0.022491006	-0.017091652	0.000209384	-0.000105079	0.000209384	-0.000105079	0.022491006	-0.017091652
91600000	0.024672162	-0.012988378	0.00002226	-0.000056189	0.00002226	-0.000056189	0.024672162	-0.012988378
94000000	0.030173232	-0.01654641	0.000067568	-0.000029232	0.000067568	-0.000029232	0.030173232	-0.01654641
96400000	0.027542814	-0.023963266	0.000142646	-0.000014063	0.000142646	-0.000014063	0.027542814	-0.023963266
98800000	0.021476796	-0.02236884	0.000038229	0.000177282	0.000038229	0.000177282	0.021476796	-0.02236884
101200000	0.02534479	-0.01826404	0.000021152	0.000002807	0.000021152	0.000002807	0.02534479	-0.01826404
103600000	0.030968334	-0.023879602	0.000029759	0.000006594	0.000029759	0.000006594	0.030968334	-0.023879602
106000000	0.026641072	-0.0321704	0.000012098	0.00004477	0.000012098	0.00004477	0.026641072	-0.0321704
108400000	0.018871692	-0.030414806	-0.000001529	0.000002207	-0.000001529	0.000002207	0.018871692	-0.030414806
110800000	0.02020377	-0.024809122	0.000116928	0.000040404	0.000116928	0.000040404	0.02020377	-0.024809122
113200000	0.025420518	-0.02728017	0.000053217	-0.000030235	0.000053217	-0.000030235	0.025420518	-0.02728017
115600000	0.023602664	-0.032614622	0.000152835	-0.000060648	0.000152835	-0.000060648	0.023602664	-0.032614622
118000000	0.019829514	-0.03232938	0.000108241	-0.000021312	0.000108241	-0.000021312	0.019829514	-0.03232938
120400000	0.021384918	-0.03081913	0.000070115	-0.000041438	0.000070115	-0.000041438	0.021384918	-0.03081913
122800000	0.022773546	-0.034443844	0.000116722	-0.000033393	0.000116722	-0.000033393	0.022773546	-0.034443844
125200000	0.01904384	-0.036879652	0.000170253	-0.000015921	0.000170253	-0.000015921	0.01904384	-0.036879652
127600000	0.017690644	-0.034302336	0.000203142	0.000020912	0.000203142	0.000020912	0.017690644	-0.034302336
130000000	0.021852362	-0.035242004	0.000091346	-0.000022873	0.000091346	-0.000022873	0.021852362	-0.035242004
132400000	0.021007712	-0.042173124	0.000207302	0.000030508	0.000207302	0.000030508	0.021007712	-0.042173124
134800000	0.012822792	-0.043203492	0.000159232	-0.000009321	0.000159232	-0.000009321	0.012822792	-0.043203492
137200000	0.011316866	-0.035762456	0.000191005	-0.000031863	0.000191005	-0.000031863	0.011316866	-0.035762456
139600000	0.01962524	-0.034738608	0.000157855	-0.000042788	0.000157855	-0.000042788	0.01962524	-0.034738608
142000000	0.022080478	-0.04459414	0.000160789	-0.000008636	0.000160789	-0.000008636	0.022080478	-0.04459414
144400000	0.013234346	-0.049448936	0.000132777	-0.000042183	0.000132777	-0.000042183	0.013234346	-0.049448936
146800000	0.008594108	-0.043457832	0.000111357	-0.000035286	0.000111357	-0.000035286	0.008594108	-0.043457832
149200000	0.01409539	-0.040915336	0.000081389	-0.000055501	0.000081389	-0.000055501	0.01409539	-0.040915336
151600000	0.016345498	-0.048058792	0.000157212	-0.00003925	0.000157212	-0.00003925	0.016345498	-0.048058792
154000000	0.009538362	-0.052115292	0.000192933	-0.000020299	0.000192933	-0.000020299	0.009538362	-0.052115292
156400000	0.005860367	-0.04786044	0.000156609	-0.000012555	0.000156609	-0.000012555	0.005860367	-0.04786044
158800000	0.009988206	-0.047005688	0.000086492	-0.000040204	0.000086492	-0.000040204	0.009988206	-0.047005688
161200000	0.009659978	-0.053987616	0.000158369	-0.000079404	0.000158369	-0.000079404	0.009659978	-0.053987616
163600000	0.001541257	-0.05558946	0.000182001	-0.00006462	0.000182001	-0.00006462	0.001541257	-0.05558946
166000000	-0.001666942	-0.0498783	0.000168078	-0.000099312	0.000168078	-0.000099312	-0.001666942	-0.0498783
168400000	0.002403389	-0.04840572	0.000115111	-0.000057751	0.000115111	-0.000057751	0.002403389	-0.04840572
170800000	0.002443529	-0.053733404	0.000086901	-0.000147953	0.000086901	-0.000147953	0.002443529	-0.053733404
173200000	-0.004333593	-0.05514382	0.000097889	-0.000070527	0.000097889	-0.000070527	-0.004333593	-0.05514382
175600000	-0.00726837	-0.0500413	0.000107765	-0.000115267	0.000107765	-0.000115267	-0.00726837	-0.0500413
178000000	-0.004677683	-0.04845722	0.000062236	-0.000098497	0.000062236	-0.000098497	-0.004677683	-0.04845722
180400000	-0.005696304	-0.050628444	0.000095044	-0.000175043	0.000095044	-0.000175043	-0.005696304	-0.050628444
182800000	-0.00985403	-0.048259664	0.000087062	-0.000096101	0.000087062	-0.000096101	-0.00985403	-0.048259664
185200000	-0.006839681	-0.04302202	0.000019807	-0.000083827	0.000019807	-0.000083827	-0.006839681	-0.04302202
187600000	-0.000273684	-0.046029424	0.000024572	-0.000144918	0.000024572	-0.000144918	-0.000273684	-0.046029424
190000000	-0.002158346	-0.05409772	0.000047235	-0.000149369	0.000047235	-0.000149369	-0.002158346	-0.05409772
192400000	-0.01005996	-0.05436242	0.000043785	-0.000213326	0.000043785	-0.000213326	-0.01005996	-0.05436242
194800000	-0.011365788	-0.0485896	0.000162066	-0.000106695	0.000162066	-0.000106695	-0.011365788	-0.0485896
197200000	-0.006907184	-0.048883492	0.000237099	-0.000105068	0.000237099	-0.000105068	-0.006907184	-0.048883492
199600000	-0.008130352	-0.054105276	0.000119792	-0.000121615	0.000119792	-0.000121615	-0.008130352	-0.054105276
202000000	-0.013937892	-0.053875304	0.000225785	-0.000101257	0.000225785	-0.000101257	-0.013937892	-0.053875304
204400000	-0.014416822	-0.05031812	0.000158961	-0.000125366	0.000158961	-0.000125366	-0.014416822	-0.05031812
206800000	-0.012915576	-0.05150488	0.000178749	-0.000198028	0.000178749	-0.000198028	-0.012915576	-0.05150488
209200000	-0.017188576	-0.05446238	0.000208224	-0.000105079	0.000208224	-0.000105079	-0.017188576	-0.05446238
211600000	-0.02292092	-0.049118788	0.000168486	-0.000078782	0.000168486	-0.000078782	-0.02292092	-0.049118788
214000000	-0.018481346	-0.042054192	0.000229595	-0.000066545	0.000229595	-0.000066545	-0.018481346	-0.042054192
216400000	-0.011045296	-0.045647996	0.000249957	-0.000184697	0.000249957	-0.000184697	-0.011045296	-0.045647996
218800000	-0.013832696	-0.053867488	0.000231814	-0.000165483	0.000231814	-0.000165483	-0.013832696	-0.053867488
221200000	-0.02202789	-0.053338752	0.000229647	-0.000063418	0.000229647	-0.000063418	-0.02202789	-0.053338752
223600000	-0.023257102	-0.0475963	0.0002504	-0.00009521	0.0002504	-0.00009521	-0.023257102	-0.0475963
226000000	-0.02082809	-0.04757582	0.00031043	-0.000127678	0.00031043	-0.000127678	-0.02082809	-0.04757582
228400000	-0.0238007	-0.04956068	0.000301623	-0.000072927	0.000301623	-0.000072927	-0.0238007	-0.04956068
230800000	-0.027372318	-0.045183956	0.000284462	-0.000154663	0.000284462	-0.000154663	-0.027372318	-0.045183956
233200000	-0.023960524	-0.040922744	0.000241415	-0.000153635	0.000241415	-0.000153635	-0.023960524	-0.040922744
235600000	-0.021020034	-0.044113872	0.000330168	-0.000111105	0.000330168	-0.000111105	-0.021020034	-0.044113872
238000000	-0.025489736	-0.046520256	0.000371084	-0.000077891	0.000371084	-0.000077891	-0.025489736	-0.046520256
240400000	-0.028531312	-0.040905792	0.000313612	-0.000130434	0.000313612	-0.000130434	-0.028531312	-0.040905792
242800000	-0.022941756	-0.037268884	0.000351063	-0.000172347	0.000351063	-0.000172347	-0.022941756	-0.037268884
245200000	-0.01930809	-0.043909512	0.000309158	-0.000139653	0.000309158	-0.000139653	-0.01930809	-0.043909512
247600000	-0.027664112	-0.04898378	0.000299373	-0.000100739	0.000299373	-0.000100739	-0.027664112	-0.04898378
250000000	-0.035932356	-0.040848592	0.000295821	-0.000122698	0.000295821	-0.000122698	-0.035932356	-0.040848592
