# Hz S RI R 50
10000000	0.01215134	-0.001317833	0.000023514	-0.000195786	0.000023514	-0.000195786	0.01215134	-0.001317833
12400000	0.010802508	-0.009735754	-0.000109354	0.000070664	-0.000109354	0.000070664	0.010802508	-0.009735754
14800000	0.001942948	-0.005335611	-0.000150679	-0.000077857	-0.000150679	-0.000077857	0.001942948	-0.005335611
17200000	0.006474317	0.002866426	0.000143896	0.000244737	0.000143896	0.000244737	0.006474317	0.002866426
19600000	0.01447084	-0.001574349	-0.000108006	-0.000053955	-0.000108006	-0.000053955	0.01447084	-0.001574349
22000000	0.009587936	-0.00884458	0.00009024	0.000107523	0.00009024	0.000107523	0.009587936	-0.00884458
24400000	0.003323585	-0.004160437	0.000242003	-0.000167065	0.000242003	-0.000167065	0.003323585	-0.004160437
26800000	0.007610677	0.000326056	-0.000158015	0.00005854	-0.000158015	0.00005854	0.007610677	0.000326056
29200000	0.010569576	-0.003852297	-0.000002872	-0.000091238	-0.000002872	-0.000091238	0.010569576	-0.003852297
31600000	0.004787598	-0.00490903	0.000050811	-0.000093113	0.000050811	-0.000093113	0.004787598	-0.00490903
34000000	0.004197117	0.00268643	-0.000092782	-0.000011006	-0.000092782	-0.000011006	0.004197117	0.00268643
36400000	0.01309639	0.003715647	-0.000211755	-0.000099307	-0.000211755	-0.000099307	0.01309639	0.003715647
38800000	0.014530024	-0.004982522	0.000089193	-0.000132004	0.000089193	-0.000132004	0.014530024	-0.004982522
41200000	0.005906546	-0.006238133	0.000008222	-0.000151746	0.000008222	-0.000151746	0.005906546	-0.006238133
43600000	0.005000166	0.002735867	-0.000006511	0.000248195	-0.000006511	0.000248195	0.005000166	0.002735867
46000000	0.015006352	0.004065516	-0.000113459	0.000172721	-0.000113459	0.000172721	0.015006352	0.004065516
48400000	0.016873624	-0.004988758	-0.000031736	0.000211856	-0.000031736	0.000211856	0.016873624	-0.004988758
50800000	0.008214704	-0.007070696	0.000076115	0.000131237	0.000076115	0.000131237	0.008214704	-0.007070696
53200000	0.007660242	0.001970913	-0.000146152	-0.000016548	-0.000146152	-0.000016548	0.007660242	0.001970913
55600000	0.016129022	0.002662759	-0.00021301	0.000059397	-0.00021301	0.000059397	0.016129022	0.002662759
58000000	0.016334156	-0.004819667	0.000281007	0.000029884	0.000281007	0.000029884	0.016334156	-0.004819667
60400000	0.009639452	-0.003349254	0.000091467	-0.00007264	0.000091467	-0.00007264	0.009639452	-0.003349254
62800000	0.01265336	0.005072485	-0.000020107	-0.000033956	-0.000020107	-0.000033956	0.01265336	0.005072485
65200000	0.023135802	0.002917013	0.000045396	0.000141556	0.000045396	0.000141556	0.023135802	0.002917013
67600000	0.022849918	-0.006705566	0.000232162	0.000102632	0.000232162	0.000102632	0.022849918	-0.006705566
70000000	0.015194746	-0.006205538	0.000151258	-0.000044218	0.000151258	-0.000044218	0.015194746	-0.006205538
72400000	0.018694542	0.001813193	0.000138163	0.000016316	0.000138163	0.000016316	0.018694542	0.001813193
74800000	0.028997366	-0.00171903	-0.000063986	-0.00001655	-0.000063986	-0.00001655	0.028997366	-0.00171903
77200000	0.028230284	-0.012688754	0.000225607	0.000191646	0.000225607	0.000191646	0.028230284	-0.012688754
79600000	0.020100796	-0.01331982	-0.00015458	-0.000048406	-0.00015458	-0.000048406	0.020100796	-0.01331982
82000000	0.020780102	-0.006785279	-0.000023129	0.000127363	-0.000023129	0.000127363	0.020780102	-0.006785279
84400000	0.028429416	-0.008157542	0.000237729	0.000041855	0.000237729	0.000041855	0.028429416	-0.008157542
86800000	0.028778634	-0.015944086	0.000080562	-0.000242058	0.000080562	-0.000242058	0.028778634	-0.015944086
89200000	0.022890724	-0.016970666	-0.0001713	-0.000153435	-0.0001713	-0.000153435	0.022890724	-0.016970666
91600000	0.024619414	-0.012876606	-0.000036991	-0.000204677	-0.000036991	-0.000204677	0.024619414	-0.012876606
94000000	0.030295336	-0.016533982	0.000052722	-0.000026463	0.000052722	-0.000026463	0.030295336	-0.016533982
96400000	0.02756881	-0.023809218	0.000121277	-0.000176092	0.000121277	-0.000176092	0.02756881	-0.023809218
98800000	0.02112177	-0.022353842	0.000246429	-0.000038806	0.000246429	-0.000038806	0.02112177	-0.022353842
101200000	0.025341548	-0.018160594	0.000019656	-0.000041652	0.000019656	-0.000041652	0.025341548	-0.018160594
103600000	0.031060542	-0.023905016	0.000055623	-0.000022913	0.000055623	-0.000022913	0.031060542	-0.023905016
106000000	0.02658813	-0.032130458	0.000035448	-0.00002037	0.000035448	-0.00002037	0.02658813	-0.032130458
108400000	0.018823502	-0.030457392	0.000029197	0.000026505	0.000029197	0.000026505	0.018823502	-0.030457392
110800000	0.020305342	-0.024747356	0.000063143	-0.000006288	0.000063143	-0.000006288	0.020305342	-0.024747356
113200000	0.025467754	-0.027342836	0.000023094	-0.000033241	0.000023094	-0.000033241	0.025467754	-0.027342836
115600000	0.023660156	-0.03274728	0.000119779	-0.000008357	0.000119779	-0.000008357	0.023660156	-0.03274728
118000000	0.019775834	-0.0323377	0.000162373	-0.000023355	0.000162373	-0.000023355	0.019775834	-0.0323377
120400000	0.021285432	-0.03081708	0.000172587	-0.000019779	0.000172587	-0.000019779	0.021285432	-0.03081708
122800000	0.022758728	-0.034524212	0.0001249	0.000015276	0.0001249	0.000015276	0.022758728	-0.034524212
125200000	0.018994014	-0.037008232	0.000171688	0.000043528	0.000171688	0.000043528	0.018994014	-0.037008232
127600000	0.017735682	-0.03434044	0.000148286	0.000087103	0.000148286	0.000087103	0.017735682	-0.03434044
130000000	0.02187159	-0.03515402	0.000097467	-0.000034281	0.000097467	-0.000034281	0.02187159	-0.03515402
132400000	0.020799922	-0.042310952	0.00016305	-0.000069746	0.00016305	-0.000069746	0.020799922	-0.042310952
134800000	0.012801186	-0.043276148	0.00010959	-0.000003624	0.00010959	-0.000003624	0.012801186	-0.043276148
137200000	0.011375572	-0.035777772	0.000083989	-0.000009581	0.000083989	-0.000009581	0.011375572	-0.035777772
139600000	0.0196177	-0.034748088	0.000145481	-0.000024931	0.000145481	-0.000024931	0.0196177	-0.034748088
142000000	0.022073238	-0.044663388	0.000166566	6.53e-7	0.000166566	6.53e-7	0.022073238	-0.044663388
144400000	0.013176838	-0.04953258	0.000141066	-0.000005826	0.000141066	-0.000005826	0.013176838	-0.04953258
146800000	0.008493236	-0.043483224	0.000168122	0.000056396	0.000168122	0.000056396	0.008493236	-0.043483224
149200000	0.014070454	-0.04099512	0.000068815	0.000009953	0.000068815	0.000009953	0.014070454	-0.04099512
151600000	0.01638288	-0.048117256	0.000108962	-0.000001575	0.000108962	-0.000001575	0.01638288	-0.048117256
154000000	0.009532044	-0.052200564	0.000137806	0.000026478	0.000137806	0.000026478	0.009532044	-0.052200564
156400000	0.00585214	-0.047700416	0.000132424	-0.00002675	0.000132424	-0.00002675	0.00585214	-0.047700416
158800000	0.009955838	-0.04691354	0.000144216	-0.000113572	0.000144216	-0.000113572	0.009955838	-0.04691354
161200000	0.009656688	-0.05390778	0.000145491	-0.000094996	0.000145491	-0.000094996	0.009656688	-0.05390778
163600000	0.001595123	-0.055577364	0.000134348	-0.000100688	0.000134348	-0.000100688	0.001595123	-0.055577364
166000000	-0.001568573	-0.049843392	0.000099751	-0.000093438	0.000099751	-0.000093438	-0.001568573	-0.049843392
168400000	0.002443795	-0.048280084	0.000128333	-0.000156607	0.000128333	-0.000156607	0.002443795	-0.048280084
170800000	0.002399697	-0.0537882	0.000169826	-0.000136207	0.000169826	-0.000136207	0.002399697	-0.0537882
173200000	-0.004370663	-0.055161836	0.000085339	-0.000042432	0.000085339	-0.000042432	-0.004370663	-0.055161836
175600000	-0.007186529	-0.0500669	0.000036332	-0.00004674	0.000036332	-0.00004674	-0.007186529	-0.0500669
178000000	-0.004663766	-0.048410276	0.000042561	-0.00011987	0.000042561	-0.00011987	-0.004663766	-0.048410276
180400000	-0.005759903	-0.050768504	0.000087808	-0.000125527	0.000087808	-0.000125527	-0.005759903	-0.050768504
182800000	-0.00987991	-0.048253024	0.000073941	-0.00009372	0.000073941	-0.00009372	-0.00987991	-0.048253024
185200000	-0.006928948	-0.043042032	0.00008063	-0.000101227	0.00008063	-0.000101227	-0.006928948	-0.043042032
187600000	-0.000301661	-0.046056136	0.000059084	-0.00008669	0.000059084	-0.00008669	-0.000301661	-0.046056136
190000000	-0.002221641	-0.054092576	0.000127561	-0.00016291	0.000127561	-0.00016291	-0.002221641	-0.054092576
192400000	-0.010183498	-0.054399292	0.000105519	-0.000121277	0.000105519	-0.000121277	-0.010183498	-0.054399292
194800000	-0.01120312	-0.048555484	0.000033006	-0.000128567	0.000033006	-0.000128567	-0.01120312	-0.048555484
197200000	-0.006822833	-0.048838872	0.000100178	-0.000188211	0.000100178	-0.000188211	-0.006822833	-0.048838872
199600000	-0.008280725	-0.054049644	0.000192654	-0.000162396	0.000192654	-0.000162396	-0.008280725	-0.054049644
202000000	-0.013894904	-0.053876816	0.000202015	-0.000056975	0.000202015	-0.000056975	-0.013894904	-0.053876816
204400000	-0.014502446	-0.05038132	0.000171431	-0.000016511	0.000171431	-0.000016511	-0.014502446	-0.05038132
206800000	-0.012885008	-0.051600488	0.000140082	-0.000038846	0.000140082	-0.000038846	-0.012885008	-0.051600488
209200000	-0.017192022	-0.054319372	0.000223898	-0.000191079	0.000223898	-0.000191079	-0.017192022	-0.054319372
211600000	-0.022858984	-0.049000516	0.00019513	-0.000143084	0.00019513	-0.000143084	-0.022858984	-0.049000516
214000000	-0.018426244	-0.04196818	0.000244864	-0.00013216	0.000244864	-0.00013216	-0.018426244	-0.04196818
216400000	-0.011131064	-0.045627132	0.000304855	-0.00012393	0.000304855	-0.00012393	-0.011131064	-0.045627132
218800000	-0.01387237	-0.053828072	0.000297943	-0.000109755	0.000297943	-0.000109755	-0.01387237	-0.053828072
221200000	-0.022074522	-0.053330332	0.000282927	-0.000069303	0.000282927	-0.000069303	-0.022074522	-0.053330332
223600000	-0.023255004	-0.047647016	0.000282847	-0.000077252	0.000282847	-0.000077252	-0.023255004	-0.047647016
226000000	-0.020765566	-0.047672728	0.00020654	-0.000061216	0.00020654	-0.000061216	-0.020765566	-0.047672728
228400000	-0.023802394	-0.049497028	0.000258143	-0.000036393	0.000258143	-0.000036393	-0.023802394	-0.049497028
230800000	-0.027275124	-0.04520686	0.00025286	-0.000172723	0.00025286	-0.000172723	-0.027275124	-0.04520686
233200000	-0.02394619	-0.041000812	0.000264264	-0.000161359	0.000264264	-0.000161359	-0.02394619	-0.041000812
235600000	-0.021058166	-0.04410396	0.000278329	-0.000126622	0.000278329	-0.000126622	-0.021058166	-0.04410396
238000000	-0.025464072	-0.046281688	0.000265275	-0.000195242	0.000265275	-0.000195242	-0.025464072	-0.046281688
240400000	-0.02842463	-0.040796508	0.000316395	-0.000164356	0.000316395	-0.000164356	-0.02842463	-0.040796508
242800000	-0.02281533	-0.037403224	0.000423172	-0.000118127	0.000423172	-0.000118127	-0.02281533	-0.037403224
245200000	-0.019468698	-0.04399554	0.000363871	-0.000118726	0.000363871	-0.000118726	-0.019468698	-0.04399554
247600000	-0.027613568	-0.048905824	0.000302057	-0.000112577	0.000302057	-0.000112577	-0.027613568	-0.048905824
250000000	-0.03595036	-0.040800076	0.000335218	-0.00011643	0.000335218	-0.00011643	-0.03595036	-0.040800076
