# Hz S RI R 50
10000000	-0.316706688	0.417208192	-0.000032819	0.000161283	-0.000032819	0.000161283	-0.316706688	0.417208192
12400000	0.377253952	0.246822208	-0.000149288	-0.000187224	-0.000149288	-0.000187224	0.377253952	0.246822208
14800000	0.275078624	-0.370612704	-0.000083959	-0.00002723	-0.000083959	-0.00002723	0.275078624	-0.370612704
17200000	-0.445021504	-0.237641904	0.000148193	-0.000232263	0.000148193	-0.000232263	-0.445021504	-0.237641904
19600000	-0.107318472	0.443175904	0.000015317	0.000005989	0.000015317	0.000005989	-0.107318472	0.443175904
22000000	0.402168704	0.094225208	0.000007965	-0.000120967	0.000007965	-0.000120967	0.402168704	0.094225208
24400000	0.117166752	-0.419409152	0.000119509	-0.00000589	0.000119509	-0.00000589	0.117166752	-0.419409152
26800000	-0.459164928	-0.038847432	-0.000113612	-0.000044144	-0.000113612	-0.000044144	-0.459164928	-0.038847432
29200000	0.047071228	0.408819904	-0.000053593	-0.000152765	-0.000053593	-0.000152765	0.047071228	0.408819904
31600000	0.385568992	-0.035654744	-0.00019917	0.000080351	-0.00019917	0.000080351	0.385568992	-0.035654744
34000000	-0.041526444	-0.411337344	0.000220689	0.000080921	0.000220689	0.000080921	-0.041526444	-0.411337344
36400000	-0.396483616	0.138754048	-0.000024498	0.000086276	-0.000024498	0.000086276	-0.396483616	0.138754048
38800000	0.173859648	0.334925056	-0.000001397	-0.000125115	-0.000001397	-0.000125115	0.173859648	0.334925056
41200000	0.336329888	-0.152388064	0.000158019	0.000065359	0.000158019	0.000065359	0.336329888	-0.152388064
43600000	-0.181192112	-0.350805888	0.000048474	0.000143222	0.000048474	0.000143222	-0.181192112	-0.350805888
46000000	-0.287417856	0.258507376	-0.00007979	-0.000018889	-0.00007979	-0.000018889	-0.287417856	0.258507376
48400000	0.258251392	0.242104224	-0.000026545	-0.000038408	-0.000026545	-0.000038408	0.258251392	0.242104224
50800000	0.26006496	-0.242993856	0.000081808	-0.000019501	0.000081808	-0.000019501	0.26006496	-0.242993856
53200000	-0.281366624	-0.24628176	0.00020458	-0.000112351	0.00020458	-0.000112351	-0.281366624	-0.24628176
55600000	-0.161207088	0.317488512	-0.000097781	-0.000001123	-0.000097781	-0.000001123	-0.161207088	0.317488512
58000000	0.303595232	0.143653888	-0.000019813	-0.000224544	-0.000019813	-0.000224544	0.303595232	0.143653888
60400000	0.165285312	-0.300639872	0.0001339	0.000069958	0.0001339	0.000069958	0.165285312	-0.300639872
62800000	-0.332429504	-0.113855896	0.000118753	-0.00000543	0.000118753	-0.00000543	-0.332429504	-0.113855896
65200000	-0.028906162	0.331311008	-0.000047717	-0.000062936	-0.000047717	-0.000062936	-0.028906162	0.331311008
67600000	0.322975872	0.038881448	-0.000097784	0.000088468	-0.000097784	0.000088468	0.322975872	0.038881448
70000000	0.060348952	-0.326783584	0.00027846	-0.000104976	0.00027846	-0.000104976	0.060348952	-0.326783584
72400000	-0.324157344	0.014769756	-0.000054983	-0.000088979	-0.000054983	-0.000088979	-0.324157344	0.014769756
74800000	0.083224576	0.299171232	0.0001542	-0.000093854	0.0001542	-0.000093854	0.083224576	0.299171232
77200000	0.311446784	-0.059704028	-0.000035423	-0.000026404	-0.000035423	-0.000026404	0.311446784	-0.059704028
79600000	-0.040084272	-0.320042208	0.000056076	0.000082197	0.000056076	0.000082197	-0.040084272	-0.320042208
82000000	-0.279935232	0.115916552	0.000061103	0.000083947	0.000061103	0.000083947	-0.279935232	0.115916552
84400000	0.166643808	0.244314496	0.00005168	-0.000197582	0.00005168	-0.000197582	0.166643808	0.244314496
86800000	0.275099264	-0.145772976	-0.000054938	0.000132019	-0.000054938	0.000132019	0.275099264	-0.145772976
89200000	-0.136565664	-0.277557504	0.000211334	0.000218897	0.000211334	0.000218897	-0.136565664	-0.277557504
91600000	-0.199551472	0.193804816	-0.000018015	-0.000112033	-0.000018015	-0.000112033	-0.199551472	0.193804816
94000000	0.228936224	0.16686744	-0.000063387	-3.72e-7	-0.000063387	-3.72e-7	0.228936224	0.16686744
96400000	0.214228032	-0.218178832	0.000067412	-0.000064666	0.000067412	-0.000064666	0.214228032	-0.218178832
98800000	-0.211239088	-0.207489872	0.000197695	0.00021166	0.000197695	0.00021166	-0.211239088	-0.207489872
101200000	-0.109630688	0.237218144	0.000002629	-0.000032132	0.000002629	-0.000032132	-0.109630688	0.237218144
103600000	0.268843552	0.085061736	0.000036491	0.000026097	0.000036491	0.000026097	0.268843552	0.085061736
106000000	0.13916712	-0.27258656	0.000024809	-0.000020281	0.000024809	-0.000020281	0.13916712	-0.27258656
108400000	-0.256407136	-0.121713288	0.000076344	0.000038996	0.000076344	0.000038996	-0.256407136	-0.121713288
110800000	-0.021186058	0.244359744	0.000021077	-0.000056834	0.000021077	-0.000056834	-0.021186058	0.244359744
113200000	0.275418208	0.003273605	0.000075792	-0.000022753	0.000075792	-0.000022753	0.275418208	0.003273605
115600000	0.052677	-0.293806976	0.000044942	0.000053667	0.000044942	0.000053667	0.052677	-0.293806976
118000000	-0.261284592	-0.022914914	0.000110246	-0.00008405	0.000110246	-0.00008405	-0.261284592	-0.022914914
120400000	0.068712824	0.223840688	0.000043391	0.00000939	0.000043391	0.00000939	0.068712824	0.223840688
122800000	0.262289888	-0.0833782	0.000137029	0.000033752	0.000137029	0.000033752	0.262289888	-0.0833782
125200000	-0.042569024	-0.288809664	0.000117948	-0.00000117	0.000117948	-0.00000117	-0.042569024	-0.288809664
127600000	-0.229556016	0.070593664	0.000093678	-0.000012995	0.000093678	-0.000012995	-0.229556016	0.070593664
130000000	0.142771856	0.17633656	0.000151992	0.000067502	0.000151992	0.000067502	0.142771856	0.17633656
132400000	0.224698704	-0.159564128	0.000063428	0.000012299	0.000063428	0.000012299	0.224698704	-0.159564128
134800000	-0.125339728	-0.253338032	0.000158523	0.000084584	0.000158523	0.000084584	-0.125339728	-0.253338032
137200000	-0.175300848	0.136283056	0.000155277	0.000009065	0.000155277	0.000009065	-0.175300848	0.136283056
139600000	0.190719328	0.119523512	0.000093579	0.000009514	0.000093579	0.000009514	0.190719328	0.119523512
142000000	0.175381088	-0.21360072	0.000129593	-9.49e-7	0.000129593	-9.49e-7	0.175381088	-0.21360072
144400000	-0.182436608	-0.199898608	0.000134316	0.000032521	0.000134316	0.000032521	-0.182436608	-0.199898608
146800000	-0.106977976	0.171484016	0.000090293	-0.000072693	0.000090293	-0.000072693	-0.106977976	0.171484016
149200000	0.218683328	0.050088492	0.000107411	-0.000032853	0.000107411	-0.000032853	0.218683328	0.050088492
151600000	0.106504048	-0.255068368	0.000160222	0.000001297	0.000160222	0.000001297	0.106504048	-0.255068368
154000000	-0.221405872	-0.125374344	0.000167715	-0.000005804	0.000167715	-0.000005804	-0.221405872	-0.125374344
156400000	-0.030548776	0.1830444	0.000158353	-0.000079165	0.000158353	-0.000079165	-0.030548776	0.1830444
158800000	0.225671024	-0.025232398	0.000176462	-0.000031518	0.000176462	-0.000031518	0.225671024	-0.025232398
161200000	0.0270434	-0.275744896	0.000138093	0.00001196	0.000138093	0.00001196	0.0270434	-0.275744896
163600000	-0.234550768	-0.045119076	0.000222123	-0.000088832	0.000222123	-0.000088832	-0.234550768	-0.045119076
166000000	0.038046056	0.170998528	0.000151985	-0.00004978	0.000151985	-0.00004978	0.038046056	0.170998528
168400000	0.210115888	-0.094275488	0.000168271	-0.000069573	0.000168271	-0.000069573	0.210115888	-0.094275488
170800000	-0.053665256	-0.267858832	0.000138982	-0.000082622	0.000138982	-0.000082622	-0.053665256	-0.267858832
173200000	-0.2161944	0.032601316	0.000116644	-0.00008903	0.000116644	-0.00008903	-0.2161944	0.032601316
175600000	0.09739608	0.137735888	0.000070216	-0.000100458	0.000070216	-0.000100458	0.09739608	0.137735888
178000000	0.172649488	-0.1560244	0.000063271	-0.00004993	0.000063271	-0.00004993	0.172649488	-0.1560244
180400000	-0.12919988	-0.228439744	0.00005935	-0.000117848	0.00005935	-0.000117848	-0.12919988	-0.228439744
182800000	-0.170127616	0.10096188	0.000081517	-0.000157045	0.000081517	-0.000157045	-0.170127616	0.10096188
185200000	0.143563552	0.093423	0.000037807	-0.000113844	0.000037807	-0.000113844	0.143563552	0.093423
187600000	0.132046728	-0.198981504	0.000020507	-0.000083672	0.000020507	-0.000083672	0.132046728	-0.198981504
190000000	-0.175371104	-0.18134632	0.000095634	-0.000201537	0.000095634	-0.000201537	-0.175371104	-0.18134632
192400000	-0.110262168	0.133583976	0.000083012	-0.000140797	0.000083012	-0.000140797	-0.110262168	0.133583976
194800000	0.170866736	0.031030926	0.000068075	-0.000127066	0.000068075	-0.000127066	0.170866736	0.031030926
197200000	0.067096756	-0.23536976	0.000169767	-0.00008019	0.000169767	-0.00008019	0.067096756	-0.23536976
199600000	-0.210716368	-0.111690584	0.000157597	-0.00014689	0.000157597	-0.00014689	-0.210716368	-0.111690584
202000000	-0.043331392	0.14728656	0.000208174	-0.00015125	0.000208174	-0.00015125	-0.043331392	0.14728656
204400000	0.174820096	-0.033398732	0.000158277	-0.000072993	0.000158277	-0.000072993	0.174820096	-0.033398732
206800000	-0.002257092	-0.246237056	0.0002308	-0.00008321	0.0002308	-0.00008321	-0.002257092	-0.246237056
209200000	-0.219993984	-0.04367652	0.000223703	-0.000154374	0.000223703	-0.000154374	-0.219993984	-0.04367652
211600000	0.009328442	0.142349584	0.000190656	-0.000113345	0.000190656	-0.000113345	0.009328442	0.142349584
214000000	0.165041248	-0.082266952	0.000236182	-0.000146	0.000236182	-0.000146	0.165041248	-0.082266952
216400000	-0.064023792	-0.23466728	0.000200804	-0.000052346	0.000200804	-0.000052346	-0.064023792	-0.23466728
218800000	-0.197287184	0.025462438	0.000272084	-0.000141661	0.000272084	-0.000141661	-0.197287184	0.025462438
221200000	0.07014232	0.111628936	0.00021258	-0.000120024	0.00021258	-0.000120024	0.07014232	0.111628936
223600000	0.133434672	-0.14464992	0.000245416	-0.000095574	0.000245416	-0.000095574	0.133434672	-0.14464992
226000000	-0.132983384	-0.20359984	0.000312783	-0.00008746	0.000312783	-0.00008746	-0.132983384	-0.20359984
228400000	-0.16309712	0.081114216	0.000308449	-0.000107389	0.000308449	-0.000107389	-0.16309712	0.081114216
230800000	0.104643248	0.07583344	0.000319447	-0.000104341	0.000319447	-0.000104341	0.104643248	0.07583344
233200000	0.092564128	-0.179103184	0.000229015	-0.000061427	0.000229015	-0.000061427	0.092564128	-0.179103184
235600000	-0.17395536	-0.152459296	0.000372338	-0.000136204	0.000372338	-0.000136204	-0.17395536	-0.152459296
238000000	-0.11155968	0.115132112	0.000296526	-0.000137694	0.000296526	-0.000137694	-0.11155968	0.115132112
240400000	0.131008936	0.031788338	0.000304702	-0.000153743	0.000304702	-0.000153743	0.131008936	0.031788338
242800000	0.043798944	-0.203583264	0.000326031	-0.000077267	0.000326031	-0.000077267	0.043798944	-0.203583264
245200000	-0.19779816	-0.094961888	0.000350523	-0.000190349	0.000350523	-0.000190349	-0.19779816	-0.094961888
247600000	-0.05629668	0.129700896	0.000313285	-0.000098477	0.000313285	-0.000098477	-0.05629668	0.129700896
250000000	0.13647856	-0.023305032	0.000266828	-0.00017604	0.000266828	-0.00017604	0.13647856	-0.023305032
