# Hz S RI R 50
10000000	-0.315679552	0.41588304	0.000050737	-0.000276817	0.000050737	-0.000276817	-0.315679552	0.41588304
12400000	0.376600928	0.245426656	0.000048606	-0.000057835	0.000048606	-0.000057835	0.376600928	0.245426656
14800000	0.27386784	-0.369555488	0.000021108	0.000067698	0.000021108	0.000067698	0.27386784	-0.369555488
17200000	-0.442513792	-0.236263456	0.00005603	0.000033807	0.00005603	0.000033807	-0.442513792	-0.236263456
19600000	-0.10643904	0.441101088	0.000016558	-0.000186623	0.000016558	-0.000186623	-0.10643904	0.441101088
22000000	0.400302848	0.09361768	-0.000018698	0.00013671	-0.000018698	0.00013671	0.400302848	0.09361768
24400000	0.116757408	-0.417386752	0.000070398	0.00011052	0.000070398	0.00011052	0.116757408	-0.417386752
26800000	-0.456171488	-0.038964672	-0.000033331	-0.00003567	-0.000033331	-0.00003567	-0.456171488	-0.038964672
29200000	0.046719252	0.405924736	-0.000179332	0.000041516	-0.000179332	0.000041516	0.046719252	0.405924736
31600000	0.383500032	-0.035089676	-0.000122924	0.000039508	-0.000122924	0.000039508	0.383500032	-0.035089676
34000000	-0.040669288	-0.408766176	0.000146746	0.000146016	0.000146746	0.000146016	-0.040669288	-0.408766176
36400000	-0.393449376	0.137148784	-0.000133839	-0.000016999	-0.000133839	-0.000016999	-0.393449376	0.137148784
38800000	0.172151424	0.332864512	0.000056779	-3.2e-8	0.000056779	-3.2e-8	0.172151424	0.332864512
41200000	0.334634176	-0.150866208	-0.000089602	0.000024331	-0.000089602	0.000024331	0.334634176	-0.150866208
43600000	-0.178569504	-0.34824272	-0.000078605	-0.000044785	-0.000078605	-0.000044785	-0.178569504	-0.34824272
46000000	-0.28588768	0.25537408	0.000107399	-0.000065103	0.000107399	-0.000065103	-0.28588768	0.25537408
48400000	0.25568568	0.241018672	-0.00007703	-0.000010754	-0.00007703	-0.000010754	0.25568568	0.241018672
50800000	0.259109232	-0.240213712	0.000048282	-0.000015108	0.000048282	-0.000015108	0.259109232	-0.240213712
53200000	-0.277341984	-0.245758736	7.67e-7	0.000247547	7.67e-7	0.000247547	-0.277341984	-0.245758736
55600000	-0.161523504	0.313994304	0.000008326	-0.000158059	0.000008326	-0.000158059	-0.161523504	0.313994304
58000000	0.300553088	0.143443344	0.000136212	0.000089556	0.000136212	0.000089556	0.300553088	0.143443344
60400000	0.165565264	-0.29760832	-0.000044888	0.000132365	-0.000044888	0.000132365	0.165565264	-0.29760832
62800000	-0.328082624	-0.114919624	-0.000059563	0.000033204	-0.000059563	0.000033204	-0.328082624	-0.114919624
65200000	-0.030569752	0.327864	-0.000142731	0.000176236	-0.000142731	0.000176236	-0.030569752	0.327864
67600000	0.320052064	0.040240376	0.00002624	-0.000207172	0.00002624	-0.000207172	0.320052064	0.040240376
70000000	0.062121868	-0.323227136	0.000067139	-0.000032413	0.000067139	-0.000032413	0.062121868	-0.323227136
72400000	-0.321364448	0.011748794	0.000099743	0.000046535	0.000099743	0.000046535	-0.321364448	0.011748794
74800000	0.080534688	0.296602432	0.000040625	-0.000039602	0.000040625	-0.000039602	0.080534688	0.296602432
77200000	0.308781056	-0.05720482	0.000187495	-0.000137232	0.000187495	-0.000137232	0.308781056	-0.05720482
79600000	-0.03701998	-0.317467968	0.000096238	0.000164665	0.000096238	0.000164665	-0.03701998	-0.317467968
82000000	-0.27790848	0.111225976	-0.000073254	-0.0000374	-0.000073254	-0.0000374	-0.27790848	0.111225976
84400000	0.162660736	0.24309016	-0.000018041	0.000092733	-0.000018041	0.000092733	0.162660736	0.24309016
86800000	0.273612352	-0.142369232	0.000098799	0.000061361	0.000098799	0.000061361	0.273612352	-0.142369232
89200000	-0.131836888	-0.276622976	0.000046116	0.000217074	0.000046116	0.000217074	-0.131836888	-0.276622976
91600000	-0.200318976	0.188518272	0.000223963	0.000190508	0.000223963	0.000190508	-0.200318976	0.188518272
94000000	0.22494144	0.16737784	0.000021615	-0.000014765	0.000021615	-0.000014765	0.22494144	0.16737784
96400000	0.214091824	-0.214182304	-0.000003542	0.000040795	-0.000003542	0.000040795	0.214091824	-0.214182304
98800000	-0.205988032	-0.208118944	0.000036058	0.000072809	0.000036058	0.000072809	-0.205988032	-0.208118944
101200000	-0.111593472	0.232522992	0.000006415	-0.000026342	0.000006415	-0.000026342	-0.111593472	0.232522992
103600000	0.264686192	0.08664624	-0.000009532	-0.000042435	-0.000009532	-0.000042435	0.264686192	0.08664624
106000000	0.140657264	-0.268001056	0.000058629	-0.00001879	0.000058629	-0.00001879	0.140657264	-0.268001056
108400000	-0.251672304	-0.124401216	0.000051668	-0.000018952	0.000051668	-0.000018952	-0.251672304	-0.124401216
110800000	-0.024925174	0.240707952	0.000096014	-0.000002585	0.000096014	-0.000002585	-0.024925174	0.240707952
113200000	0.27183776	0.006194978	0.000073908	-0.000021137	0.000073908	-0.000021137	0.27183776	0.006194978
115600000	0.055760404	-0.28976128	0.000035819	0.000046121	0.000035819	0.000046121	0.055760404	-0.28976128
118000000	-0.257961536	-0.027763336	0.000128103	0.000037403	0.000128103	0.000037403	-0.257961536	-0.027763336
120400000	0.063697464	0.221977968	0.000141296	0.000017386	0.000141296	0.000017386	0.063697464	0.221977968
122800000	0.25956616	-0.07941284	0.000083899	0.000095858	0.000083899	0.000095858	0.25956616	-0.07941284
125200000	-0.037459496	-0.286016992	0.000101739	0.000091867	0.000101739	0.000091867	-0.037459496	-0.286016992
127600000	-0.228465264	0.064775608	0.00014398	0.000076606	0.00014398	0.000076606	-0.228465264	0.064775608
130000000	0.137483152	0.176098032	0.000136037	0.000023196	0.000136037	0.000023196	0.137483152	0.176098032
132400000	0.223800512	-0.154274752	0.000138145	0.000066169	0.000138145	0.000066169	0.223800512	-0.154274752
134800000	-0.119315176	-0.252673424	0.000126119	0.00002798	0.000126119	0.00002798	-0.119315176	-0.252673424
137200000	-0.176413104	0.130100992	0.000115921	-0.00002393	0.000115921	-0.00002393	-0.176413104	0.130100992
139600000	0.184966336	0.121429	0.000095411	-0.000062576	0.000095411	-0.000062576	0.184966336	0.121429
142000000	0.176638288	-0.20806968	0.000102312	0.000030749	0.000102312	0.000030749	0.176638288	-0.20806968
144400000	-0.176317056	-0.20159248	0.00020206	0.000071928	0.00020206	0.000071928	-0.176317056	-0.20159248
146800000	-0.110216848	0.166192128	0.000134866	0.000014981	0.000134866	0.000014981	-0.110216848	0.166192128
149200000	0.213869936	0.053239488	0.000106763	-0.00000683	0.000106763	-0.00000683	0.213869936	0.053239488
151600000	0.109466352	-0.249738016	0.000103895	0.000029945	0.000103895	0.000029945	0.109466352	-0.249738016
154000000	-0.2161164	-0.129366904	0.00013836	-0.00003546	0.00013836	-0.00003546	-0.2161164	-0.129366904
156400000	-0.035606508	0.179329328	0.000144711	-0.000095886	0.000144711	-0.000095886	-0.035606508	0.179329328
158800000	0.222358832	-0.020207264	0.00015315	-0.000030119	0.00015315	-0.000030119	0.222358832	-0.020207264
161200000	0.032145142	-0.27171296	0.000156868	0.000004681	0.000156868	0.000004681	0.032145142	-0.27171296
163600000	-0.230980448	-0.051437868	0.000134907	-0.000071389	0.000134907	-0.000071389	-0.230980448	-0.051437868
166000000	0.031890426	0.168956512	0.000113771	-0.000116583	0.000113771	-0.000116583	0.031890426	0.168956512
168400000	0.207972624	-0.088589448	0.000120011	-0.000096755	0.000120011	-0.000096755	0.207972624	-0.088589448
170800000	-0.04774034	-0.265412576	0.000139358	-0.000104229	0.000139358	-0.000104229	-0.04774034	-0.265412576
173200000	-0.215362224	0.026071216	0.00008907	-0.000163675	0.00008907	-0.000163675	-0.215362224	0.026071216
175600000	0.090900032	0.138290592	0.000041842	-0.000133171	0.000041842	-0.000133171	0.090900032	0.138290592
178000000	0.17295232	-0.149191648	0.00011364	-0.000143866	0.00011364	-0.000143866	0.17295232	-0.149191648
180400000	-0.121886672	-0.229549744	0.000124849	-0.000143454	0.000124849	-0.000143454	-0.121886672	-0.229549744
182800000	-0.1720904	0.093877336	0.000100988	-0.000172372	0.000100988	-0.000172372	-0.1720904	0.093877336
185200000	0.137290336	0.096071144	0.000016496	-0.00017688	0.000016496	-0.00017688	0.137290336	0.096071144
187600000	0.134255472	-0.192184336	0.000059785	-0.000084694	0.000059785	-0.000084694	0.134255472	-0.192184336
190000000	-0.168120432	-0.184219856	0.00012213	-0.000084034	0.00012213	-0.000084034	-0.168120432	-0.184219856
192400000	-0.114339312	0.127858384	0.00004532	-0.000124971	0.00004532	-0.000124971	-0.114339312	0.127858384
194800000	0.165808352	0.03566468	0.000045578	-0.000136993	0.000045578	-0.000136993	0.165808352	0.03566468
197200000	0.07212112	-0.229503072	0.000104289	-0.000156524	0.000104289	-0.000156524	0.07212112	-0.229503072
199600000	-0.205025152	-0.117324584	0.000143021	-0.000214314	0.000143021	-0.000214314	-0.205025152	-0.117324584
202000000	-0.04945388	0.143405568	0.000178961	-0.000199227	0.000178961	-0.000199227	-0.04945388	0.143405568
204400000	0.171412	-0.02729243	0.000170913	-0.000095375	0.000170913	-0.000095375	0.171412	-0.02729243
206800000	0.004138298	-0.24251432	0.000234384	-0.000085464	0.000234384	-0.000085464	0.004138298	-0.24251432
209200000	-0.216675936	-0.05045822	0.000175128	-0.000093868	0.000175128	-0.000093868	-0.216675936	-0.05045822
211600000	0.002776046	0.14101872	0.000131649	-0.000174296	0.000131649	-0.000174296	0.002776046	0.14101872
214000000	0.163916	-0.075283288	0.000172091	-0.000108857	0.000172091	-0.000108857	0.163916	-0.075283288
216400000	-0.055853344	-0.233206768	0.000223725	-0.000115114	0.000223725	-0.000115114	-0.055853344	-0.233206768
218800000	-0.19760568	0.017161312	0.000238101	-0.000155065	0.000238101	-0.000155065	-0.19760568	0.017161312
221200000	0.062897816	0.113254168	0.000316074	-0.000118725	0.000316074	-0.000118725	0.062897816	0.113254168
223600000	0.134991632	-0.137105552	0.000240617	-0.000092134	0.000240617	-0.000092134	0.134991632	-0.137105552
226000000	-0.124276904	-0.20529456	0.000294213	-0.000040432	0.000294213	-0.000040432	-0.124276904	-0.20529456
228400000	-0.165796064	0.073193576	0.000311326	-0.000098835	0.000311326	-0.000098835	-0.165796064	0.073193576
230800000	0.098135424	0.078776328	0.000208125	-0.000088813	0.000208125	-0.000088813	0.098135424	0.078776328
233200000	0.095566928	-0.171577936	0.000226369	-0.00009248	0.000226369	-0.00009248	0.095566928	-0.171577936
235600000	-0.16594768	-0.15646672	0.000306887	-0.000135244	0.000306887	-0.000135244	-0.16594768	-0.15646672
238000000	-0.116510408	0.109105368	0.000285349	-0.00015224	0.000285349	-0.00015224	-0.116510408	0.109105368
240400000	0.125893072	0.036993356	0.000295215	-0.000134993	0.000295215	-0.000134993	0.125893072	0.036993356
242800000	0.049603784	-0.197539904	0.000369309	-0.000162929	0.000369309	-0.000162929	0.049603784	-0.197539904
245200000	-0.191949248	-0.102064712	0.000371308	-0.000127902	0.000371308	-0.000127902	-0.191949248	-0.102064712
247600000	-0.063165008	0.125816104	0.000347555	-0.000202495	0.000347555	-0.000202495	-0.063165008	0.125816104
250000000	0.133239256	-0.016365442	0.000322074	-0.000171853	0.000322074	-0.000171853	0.133239256	-0.016365442
