# Hz S RI R 50
10000000	-0.316642656	0.416826176	0.000368384	0.000111384	0.000368384	0.000111384	-0.316642656	0.416826176
12400000	0.377429472	0.246992512	5.73e-7	-0.00009699	5.73e-7	-0.00009699	0.377429472	0.246992512
14800000	0.275102112	-0.37058272	-0.000031787	0.000055413	-0.000031787	0.000055413	0.275102112	-0.37058272
17200000	-0.444928288	-0.238026032	0.000020281	0.000267572	0.000020281	0.000267572	-0.444928288	-0.238026032
19600000	-0.107360056	0.443229632	0.000203542	0.000162108	0.000203542	0.000162108	-0.107360056	0.443229632
22000000	0.402271808	0.094195336	-0.000289101	0.000081359	-0.000289101	0.000081359	0.402271808	0.094195336
24400000	0.117002048	-0.419359904	0.000094407	-0.000215116	0.000094407	-0.000215116	0.117002048	-0.419359904
26800000	-0.459296352	-0.039290688	0.000131132	0.000278692	0.000131132	0.000278692	-0.459296352	-0.039290688
29200000	0.046900484	0.408559296	0.000068051	0.000071704	0.000068051	0.000071704	0.046900484	0.408559296
31600000	0.385338496	-0.035613288	0.000155191	0.000180646	0.000155191	0.000180646	0.385338496	-0.035613288
34000000	-0.041627216	-0.411254848	0.000237644	0.000019587	0.000237644	0.000019587	-0.041627216	-0.411254848
36400000	-0.396673984	0.138886848	0.000211207	0.000214708	0.000211207	0.000214708	-0.396673984	0.138886848
38800000	0.173968432	0.33515008	-0.000046741	-0.0003675	-0.000046741	-0.0003675	0.173968432	0.33515008
41200000	0.33616176	-0.152354016	0.000268946	-0.000102469	0.000268946	-0.000102469	0.33616176	-0.152354016
43600000	-0.180999264	-0.3509744	-0.000051382	0.000195406	-0.000051382	0.000195406	-0.180999264	-0.3509744
46000000	-0.287631616	0.258633232	0.000218118	0.000017195	0.000218118	0.000017195	-0.287631616	0.258633232
48400000	0.258394832	0.242147632	-0.000111489	0.000142259	-0.000111489	0.000142259	0.258394832	0.242147632
50800000	0.26008328	-0.243210672	0.000169621	0.000163733	0.000169621	0.000163733	0.26008328	-0.243210672
53200000	-0.281165344	-0.246146656	-0.000270911	-0.000058439	-0.000270911	-0.000058439	-0.281165344	-0.246146656
55600000	-0.161153616	0.317753472	-0.000154365	-0.000292218	-0.000154365	-0.000292218	-0.161153616	0.317753472
58000000	0.303614528	0.14374048	0.00000508	-0.000223324	0.00000508	-0.000223324	0.303614528	0.14374048
60400000	0.165432272	-0.300529408	0.000009901	-0.000191735	0.000009901	-0.000191735	0.165432272	-0.300529408
62800000	-0.33224256	-0.114104024	-0.000090969	0.000198153	-0.000090969	0.000198153	-0.33224256	-0.114104024
65200000	-0.029103506	0.33139744	-0.000145135	0.000070047	-0.000145135	0.000070047	-0.029103506	0.33139744
67600000	0.322971424	0.039116632	-0.000008903	-0.000297049	-0.000008903	-0.000297049	0.322971424	0.039116632
70000000	0.06026486	-0.327040992	0.000227741	0.000141044	0.000227741	0.000141044	0.06026486	-0.327040992
72400000	-0.323965664	0.014525174	-0.000216361	0.000008874	-0.000216361	0.000008874	-0.323965664	0.014525174
74800000	0.0835002	0.299489408	0.00013348	-0.000231182	0.00013348	-0.000231182	0.0835002	0.299489408
77200000	0.311117376	-0.059803304	0.000202364	0.000067217	0.000202364	0.000067217	0.311117376	-0.059803304
79600000	-0.040459452	-0.320151584	0.000254257	0.000137877	0.000254257	0.000137877	-0.040459452	-0.320151584
82000000	-0.279898016	0.115698136	0.00000168	0.000299343	0.00000168	0.000299343	-0.279898016	0.115698136
84400000	0.166620112	0.244445968	-0.000049046	-0.000237453	-0.000049046	-0.000237453	0.166620112	0.244445968
86800000	0.275266016	-0.145649888	-0.000092957	-0.000077324	-0.000092957	-0.000077324	0.275266016	-0.145649888
89200000	-0.13621888	-0.27728608	-0.000117992	-0.000041953	-0.000117992	-0.000041953	-0.13621888	-0.27728608
91600000	-0.199659104	0.193881808	0.000179825	-0.000259014	0.000179825	-0.000259014	-0.199659104	0.193881808
94000000	0.228756944	0.166974736	0.000386794	-0.000029917	0.000386794	-0.000029917	0.228756944	0.166974736
96400000	0.214242592	-0.218397168	0.000209368	0.000187162	0.000209368	0.000187162	0.214242592	-0.218397168
98800000	-0.210871312	-0.20739728	-0.000248033	0.00007866	-0.000248033	0.00007866	-0.210871312	-0.20739728
101200000	-0.109653352	0.237340112	-0.000023391	-0.000056567	-0.000023391	-0.000056567	-0.109653352	0.237340112
103600000	0.268817312	0.085052256	0.000071486	-0.000023781	0.000071486	-0.000023781	0.268817312	0.085052256
106000000	0.139118624	-0.27267248	0.000092735	0.000002485	0.000092735	0.000002485	0.139118624	-0.27267248
108400000	-0.256393488	-0.121621808	0.000086731	-0.000015289	0.000086731	-0.000015289	-0.256393488	-0.121621808
110800000	-0.021337932	0.244507856	0.000099953	-0.000011104	0.000099953	-0.000011104	-0.021337932	0.244507856
113200000	0.27542688	0.003222954	0.000069245	0.000005951	0.000069245	0.000005951	0.27542688	0.003222954
115600000	0.052543668	-0.293743072	0.000127271	0.000059852	0.000127271	0.000059852	0.052543668	-0.293743072
118000000	-0.26132008	-0.022915906	0.000191625	-0.000046244	0.000191625	-0.000046244	-0.26132008	-0.022915906
120400000	0.068694928	0.223944016	0.000154604	-0.000032412	0.000154604	-0.000032412	0.068694928	0.223944016
122800000	0.262296528	-0.083417432	0.000115636	-0.000008846	0.000115636	-0.000008846	0.262296528	-0.083417432
125200000	-0.042570396	-0.288812704	0.000127319	0.000021451	0.000127319	0.000021451	-0.042570396	-0.288812704
127600000	-0.229607104	0.070604136	0.000166804	-0.000012611	0.000166804	-0.000012611	-0.229607104	0.070604136
130000000	0.142931424	0.17643288	0.000104457	-0.000033329	0.000104457	-0.000033329	0.142931424	0.17643288
132400000	0.224523584	-0.159624768	0.000147454	0.000020032	0.000147454	0.000020032	0.224523584	-0.159624768
134800000	-0.12533036	-0.253277664	0.000138277	0.000041476	0.000138277	0.000041476	-0.12533036	-0.253277664
137200000	-0.175407488	0.13628184	0.000150375	0.000026201	0.000150375	0.000026201	-0.175407488	0.13628184
139600000	0.190716752	0.119650664	0.000162126	-0.000003112	0.000162126	-0.000003112	0.190716752	0.119650664
142000000	0.1754596	-0.213585856	0.000076618	-0.000041482	0.000076618	-0.000041482	0.1754596	-0.213585856
144400000	-0.182461504	-0.199799856	0.000115251	-0.000032855	0.000115251	-0.000032855	-0.182461504	-0.199799856
146800000	-0.107071504	0.171575968	0.00016241	-0.000099665	0.00016241	-0.000099665	-0.107071504	0.171575968
149200000	0.21864968	0.050056388	0.000052256	-0.000026304	0.000052256	-0.000026304	0.21864968	0.050056388
151600000	0.10645168	-0.255044304	0.00016238	0.000066666	0.00016238	0.000066666	0.10645168	-0.255044304
154000000	-0.221469648	-0.125408176	0.00016049	0.000027553	0.00016049	0.000027553	-0.221469648	-0.125408176
156400000	-0.030525974	0.182936496	0.00013284	-0.000008581	0.00013284	-0.000008581	-0.030525974	0.182936496
158800000	0.225708512	-0.025314868	0.000115215	0.000030861	0.000115215	0.000030861	0.225708512	-0.025314868
161200000	0.026927474	-0.27567248	0.000177696	0.000054022	0.000177696	0.000054022	0.026927474	-0.27567248
163600000	-0.2346064	-0.045140816	0.000243444	-0.000055418	0.000243444	-0.000055418	-0.2346064	-0.045140816
166000000	0.038055228	0.170993872	0.000129144	-0.000048803	0.000129144	-0.000048803	0.038055228	0.170993872
168400000	0.21014728	-0.094301696	0.00014657	-0.000024753	0.00014657	-0.000024753	0.21014728	-0.094301696
170800000	-0.053784024	-0.267859488	0.000165873	-0.000050199	0.000165873	-0.000050199	-0.053784024	-0.267859488
173200000	-0.21618032	0.03274646	0.000074112	-0.000145425	0.000074112	-0.000145425	-0.21618032	0.03274646
175600000	0.097401512	0.137662752	0.000020171	-0.00007085	0.000020171	-0.00007085	0.097401512	0.137662752
178000000	0.17264416	-0.155985616	0.000065634	-0.00012262	0.000065634	-0.00012262	0.17264416	-0.155985616
180400000	-0.126028168	-0.227613792	0.000027202	-0.00011952	0.000027202	-0.00011952	-0.126028168	-0.227613792
182800000	-0.1700772	0.100878872	0.000044031	-0.000125781	0.000044031	-0.000125781	-0.1700772	0.100878872
185200000	0.143607568	0.09340436	0.000005462	-0.000108803	0.000005462	-0.000108803	0.143607568	0.09340436
187600000	0.132158264	-0.199001632	0.000023751	-0.000120674	0.000023751	-0.000120674	0.132158264	-0.199001632
190000000	-0.17530248	-0.18141784	0.000046338	-0.000211901	0.000046338	-0.000211901	-0.17530248	-0.18141784
192400000	-0.1101384	0.133628728	0.000053047	-0.000191475	0.000053047	-0.000191475	-0.1101384	0.133628728
194800000	0.170821264	0.031006964	0.00007206	-0.000112123	0.00007206	-0.000112123	0.170821264	0.031006964
197200000	0.06715988	-0.235435776	0.000150862	-0.000110157	0.000150862	-0.000110157	0.06715988	-0.235435776
199600000	-0.210662032	-0.111674464	0.000127679	-0.000081679	0.000127679	-0.000081679	-0.210662032	-0.111674464
202000000	-0.043307984	0.147291984	0.000092956	-0.000188869	0.000092956	-0.000188869	-0.043307984	0.147291984
204400000	0.174820032	-0.03345694	0.000109731	-0.000052948	0.000109731	-0.000052948	0.174820032	-0.03345694
206800000	-0.002148318	-0.246175392	0.000207003	-0.000114714	0.000207003	-0.000114714	-0.002148318	-0.246175392
209200000	-0.219934864	-0.043686456	0.000164773	-0.000100922	0.000164773	-0.000100922	-0.219934864	-0.043686456
211600000	0.00936859	0.142416912	0.00019914	-0.000162708	0.00019914	-0.000162708	0.00936859	0.142416912
214000000	0.165119536	-0.082363504	0.000153224	-0.000092469	0.000153224	-0.000092469	0.165119536	-0.082363504
216400000	-0.063983568	-0.234564848	0.000216489	-0.000071606	0.000216489	-0.000071606	-0.063983568	-0.234564848
218800000	-0.197199376	0.025516768	0.000206541	-0.000120846	0.000206541	-0.000120846	-0.197199376	0.025516768
221200000	0.070263728	0.111658504	0.000195491	-0.000148509	0.000195491	-0.000148509	0.070263728	0.111658504
223600000	0.13339712	-0.144885472	0.000189931	-0.000090425	0.000189931	-0.000090425	0.13339712	-0.144885472
226000000	-0.13296492	-0.203579264	0.000282925	-0.000019647	0.000282925	-0.000019647	-0.13296492	-0.203579264
228400000	-0.16311392	0.081193472	0.000344079	-0.000086383	0.000344079	-0.000086383	-0.16311392	0.081193472
230800000	0.104745136	0.075837672	0.000211496	-0.000127769	0.000211496	-0.000127769	0.104745136	0.075837672
233200000	0.092565192	-0.179062992	0.000258447	-0.000039366	0.000258447	-0.000039366	0.092565192	-0.179062992
235600000	-0.173893648	-0.15242832	0.000353907	-0.000058991	0.000353907	-0.000058991	-0.173893648	-0.15242832
238000000	-0.11161256	0.11516184	0.000277155	-0.000146987	0.000277155	-0.000146987	-0.11161256	0.11516184
240400000	0.131057336	0.031725932	0.000343187	-0.000089916	0.000343187	-0.000089916	0.131057336	0.031725932
242800000	0.043664404	-0.203497984	0.000340844	-0.000025524	0.000340844	-0.000025524	0.043664404	-0.203497984
245200000	-0.197777984	-0.094983664	0.000323725	-0.000153158	0.000323725	-0.000153158	-0.197777984	-0.094983664
247600000	-0.056230252	0.12973024	0.000301216	-0.000135398	0.000301216	-0.000135398	-0.056230252	0.12973024
250000000	0.13646432	-0.023359102	0.000266217	-0.000123795	0.000266217	-0.000123795	0.13646432	-0.023359102
