# Hz S RI R 50
10000000	0.402320992	-0.253308864	-0.000109191	0.000003187	-0.000109191	0.000003187	0.402320992	-0.253308864
12400000	-0.292923488	-0.438489984	0.000092428	-0.000138605	0.000092428	-0.000138605	-0.292923488	-0.438489984
14800000	-0.342570336	0.367433536	0.000240143	-0.000228228	0.000240143	-0.000228228	-0.342570336	0.367433536
17200000	0.329365376	0.285820512	0.000238588	0.000020495	0.000238588	0.000020495	0.329365376	0.285820512
19600000	0.321825888	-0.298191104	-0.00004129	0.000160556	-0.00004129	0.000160556	0.321825888	-0.298191104
22000000	-0.345315136	-0.333372992	-0.000123695	0.000055122	-0.000123695	0.000055122	-0.345315136	-0.333372992
24400000	-0.236355872	0.384063392	0.000041829	0.000041365	0.000041829	0.000041365	-0.236355872	0.384063392
26800000	0.345144576	0.206326672	-0.000057194	0.000092369	-0.000057194	0.000092369	0.345144576	0.206326672
29200000	0.243683376	-0.331132608	0.000009266	-0.00010635	0.000009266	-0.00010635	0.243683376	-0.331132608
31600000	-0.37836176	-0.231759488	-0.000005641	-0.000162383	-0.000005641	-0.000162383	-0.37836176	-0.231759488
34000000	-0.146749408	0.387116	-0.000064055	-0.000131908	-0.000064055	-0.000131908	-0.146749408	0.387116
36400000	0.350661024	0.143359952	0.000035475	-0.000043813	0.000035475	-0.000043813	0.350661024	0.143359952
38800000	0.181069056	-0.346336576	0.000229285	5.29e-7	0.000229285	5.29e-7	0.181069056	-0.346336576
41200000	-0.385619424	-0.150647632	-0.000159726	0.000156952	-0.000159726	0.000156952	-0.385619424	-0.150647632
43600000	-0.074117376	0.376729056	0.000023002	0.000074759	0.000023002	0.000074759	-0.074117376	0.376729056
46000000	0.3486264	0.085288672	0.000085841	0.000168773	0.000085841	0.000168773	0.3486264	0.085288672
48400000	0.120188072	-0.351276544	-0.000140779	0.000272667	-0.000140779	0.000272667	0.120188072	-0.351276544
50800000	-0.37770368	-0.076289208	-0.000086125	-0.000328126	-0.000086125	-0.000328126	-0.37770368	-0.076289208
53200000	-0.011790164	0.358300032	-0.000092313	0.000075232	-0.000092313	0.000075232	-0.011790164	0.358300032
55600000	0.342023264	0.032483648	-0.000006354	0.000087294	-0.000006354	0.000087294	0.342023264	0.032483648
58000000	0.060711764	-0.351566432	-0.000088098	0.000053448	-0.000088098	0.000053448	0.060711764	-0.351566432
60400000	-0.36174688	-0.001784835	-0.000232206	-0.000136407	-0.000232206	-0.000136407	-0.36174688	-0.001784835
62800000	0.04849484	0.335963264	0.000117964	-0.000072186	0.000117964	-0.000072186	0.04849484	0.335963264
65200000	0.3316672	-0.014282452	-0.000025034	-0.000037259	-0.000025034	-0.000037259	0.3316672	-0.014282452
67600000	0.01331876	-0.340408128	0.000115071	0.000018114	0.000115071	0.000018114	0.01331876	-0.340408128
70000000	-0.330937856	0.052355024	0.000253222	0.000246684	0.000253222	0.000246684	-0.330937856	0.052355024
72400000	0.097143176	0.304203008	0.000070562	0.000186559	0.000070562	0.000186559	0.097143176	0.304203008
74800000	0.317855168	-0.058812992	-0.000003643	0.00017214	-0.000003643	0.00017214	0.317855168	-0.058812992
77200000	-0.027372316	-0.328996768	0.000118188	-0.000018811	0.000118188	-0.000018811	-0.027372316	-0.328996768
79600000	-0.299541344	0.092987848	0.00004145	-0.000375405	0.00004145	-0.000375405	-0.299541344	0.092987848
82000000	0.137091616	0.268759008	0.00022268	0.000040872	0.00022268	0.000040872	0.137091616	0.268759008
84400000	0.296800192	-0.10433216	-0.000085549	0.000146849	-0.000085549	0.000146849	0.296800192	-0.10433216
86800000	-0.074186752	-0.308436288	0.000131075	0.000116417	0.000131075	0.000116417	-0.074186752	-0.308436288
89200000	-0.25974888	0.130703736	-0.000086291	-0.000096437	-0.000086291	-0.000096437	-0.25974888	0.130703736
91600000	0.172005568	0.229138976	-0.000085783	-0.000040676	-0.000085783	-0.000040676	0.172005568	0.229138976
94000000	0.272551648	-0.143918208	0.000041404	-0.000128278	0.000041404	-0.000128278	0.272551648	-0.143918208
96400000	-0.113907112	-0.287867584	0.000163198	-0.000083084	0.000163198	-0.000083084	-0.113907112	-0.287867584
98800000	-0.223643456	0.158225216	0.000301541	0.000097653	0.000301541	0.000097653	-0.223643456	0.158225216
101200000	0.19919144	0.19361376	-0.000033204	-0.000015177	-0.000033204	-0.000015177	0.19919144	0.19361376
103600000	0.247342848	-0.179662608	-0.000057346	0.000018898	-0.000057346	0.000018898	0.247342848	-0.179662608
106000000	-0.147914304	-0.264883488	0.000005644	-0.000011657	0.000005644	-0.000011657	-0.147914304	-0.264883488
108400000	-0.190738704	0.173577232	0.000017543	0.000002109	0.000017543	0.000002109	-0.190738704	0.173577232
110800000	0.213445248	0.155846832	0.000009211	-0.000032599	0.000009211	-0.000032599	0.213445248	0.155846832
113200000	0.213406752	-0.207494736	0.000045835	-0.000031102	0.000045835	-0.000031102	0.213406752	-0.207494736
115600000	-0.17940424	-0.230893088	0.000152155	-0.000070268	0.000152155	-0.000070268	-0.17940424	-0.230893088
118000000	-0.148925776	0.192301456	0.000100333	0.000021556	0.000100333	0.000021556	-0.148925776	0.192301456
120400000	0.23014888	0.1147892	0.000125462	0.000053732	0.000125462	0.000053732	0.23014888	0.1147892
122800000	0.1774204	-0.234786768	0.000152697	0.000057589	0.000152697	0.000057589	0.1774204	-0.234786768
125200000	-0.20459768	-0.19414272	0.000113755	0.0000237	0.000113755	0.0000237	-0.20459768	-0.19414272
127600000	-0.107840616	0.20001328	0.000124822	-0.000012563	0.000124822	-0.000012563	-0.107840616	0.20001328
130000000	0.237177648	0.075074864	0.000099814	0.00002781	0.000099814	0.00002781	0.237177648	0.075074864
132400000	0.142388272	-0.252287632	0.000160214	0.000090023	0.000160214	0.000090023	0.142388272	-0.252287632
134800000	-0.220285696	-0.162663312	0.000192368	-0.000019964	0.000192368	-0.000019964	-0.220285696	-0.162663312
137200000	-0.078465992	0.201641904	0.000176939	-0.000003784	0.000176939	-0.000003784	-0.078465992	0.201641904
139600000	0.239008448	0.044933684	0.000111481	0.000025859	0.000111481	0.000025859	0.239008448	0.044933684
142000000	0.112768664	-0.263064352	0.000132726	0.000021549	0.000132726	0.000021549	0.112768664	-0.263064352
144400000	-0.227240368	-0.132979456	0.000117499	-0.000014247	0.000117499	-0.000014247	-0.227240368	-0.132979456
146800000	-0.046313404	0.195935504	0.000110693	-0.000089107	0.000110693	-0.000089107	-0.046313404	0.195935504
149200000	0.236018288	0.007705656	0.000126791	-0.000010387	0.000126791	-0.000010387	0.236018288	0.007705656
151600000	0.074356912	-0.271999584	0.000185458	-8.21e-7	0.000185458	-8.21e-7	0.074356912	-0.271999584
154000000	-0.233227296	-0.098155784	0.000171453	-0.000058038	0.000171453	-0.000058038	-0.233227296	-0.098155784
156400000	-0.014430892	0.18831544	0.000190107	-0.000057942	0.000190107	-0.000057942	-0.014430892	0.18831544
158800000	0.229813328	-0.028787822	0.000153433	-0.000049981	0.000153433	-0.000049981	0.229813328	-0.028787822
161200000	0.034980668	-0.278322272	0.00021564	-0.000033832	0.00021564	-0.000033832	0.034980668	-0.278322272
163600000	-0.237694032	-0.065655924	0.000199914	-0.000128176	0.000199914	-0.000128176	-0.237694032	-0.065655924
166000000	0.009988278	0.17868888	0.000165097	-0.00007802	0.000165097	-0.00007802	0.009988278	0.17868888
168400000	0.217507696	-0.059269388	0.000174343	-0.000027338	0.000174343	-0.000027338	0.217507696	-0.059269388
170800000	-0.004496939	-0.275325696	0.000159299	-0.000045028	0.000159299	-0.000045028	-0.004496939	-0.275325696
173200000	-0.234959488	-0.030049296	0.000176194	-0.000038774	0.000176194	-0.000038774	-0.234959488	-0.030049296
175600000	0.03449182	0.166564208	0.000085699	-0.000140497	0.000085699	-0.000140497	0.03449182	0.166564208
178000000	0.200804256	-0.087173704	0.000105389	-0.000102143	0.000105389	-0.000102143	0.200804256	-0.087173704
180400000	-0.044569356	-0.262976592	0.000097815	-0.000156439	0.000097815	-0.000156439	-0.044569356	-0.262976592
182800000	-0.224632976	0.010235188	0.000063756	-0.000153722	0.000063756	-0.000153722	-0.224632976	0.010235188
185200000	0.060846352	0.154229264	0.00001386	-0.000210932	0.00001386	-0.000210932	0.060846352	0.154229264
187600000	0.190819744	-0.10776604	0.000069427	-0.000152422	0.000069427	-0.000152422	0.190819744	-0.10776604
190000000	-0.06600576	-0.25484184	0.000072702	-0.000138154	0.000072702	-0.000138154	-0.06600576	-0.25484184
192400000	-0.210138208	0.029610254	0.000081058	-0.000171949	0.000081058	-0.000171949	-0.210138208	0.029610254
194800000	0.079972688	0.134658224	0.000049986	-0.000187934	0.000049986	-0.000187934	0.079972688	0.134658224
197200000	0.171388272	-0.134841312	0.000066551	-0.000135856	0.000066551	-0.000135856	0.171388272	-0.134841312
199600000	-0.099189752	-0.23948824	0.000141259	-0.000097055	0.000141259	-0.000097055	-0.099189752	-0.23948824
202000000	-0.191939296	0.055340952	0.000110779	-0.000119197	0.000110779	-0.000119197	-0.191939296	0.055340952
204400000	0.09654316	0.110429576	0.000084325	-0.000142796	0.000084325	-0.000142796	0.09654316	0.110429576
206800000	0.145829328	-0.156815056	0.000213251	-0.00010042	0.000213251	-0.00010042	0.145829328	-0.156815056
209200000	-0.128236592	-0.219002	0.000227906	-0.000099372	0.000227906	-0.000099372	-0.128236592	-0.219002
211600000	-0.177185936	0.075984184	0.000239352	-0.000134521	0.000239352	-0.000134521	-0.177185936	0.075984184
214000000	0.10634396	0.09997996	0.000229623	-0.000054685	0.000229623	-0.000054685	0.10634396	0.09997996
216400000	0.131983088	-0.167442432	0.000190568	-0.000054354	0.000190568	-0.000054354	0.131983088	-0.167442432
218800000	-0.144416576	-0.200824608	0.000251917	-0.000081672	0.000251917	-0.000081672	-0.144416576	-0.200824608
221200000	-0.15619672	0.091088688	0.000250354	-0.000068912	0.000250354	-0.000068912	-0.15619672	0.091088688
223600000	0.118283976	0.073726432	0.000182867	-0.000081749	0.000182867	-0.000081749	0.118283976	0.073726432
226000000	0.100924336	-0.186593824	0.000198651	-0.000104555	0.000198651	-0.000104555	0.100924336	-0.186593824
228400000	-0.170591152	-0.170028272	0.000328418	-0.000125525	0.000328418	-0.000125525	-0.170591152	-0.170028272
230800000	-0.132428288	0.108723048	0.000367416	-0.000150828	0.000367416	-0.000150828	-0.132428288	0.108723048
233200000	0.12623532	0.056228912	0.000227717	-0.000118609	0.000227717	-0.000118609	0.12623532	0.056228912
235600000	0.077643624	-0.192565376	0.000232921	-0.000094806	0.000232921	-0.000094806	0.077643624	-0.192565376
238000000	-0.181723632	-0.141463568	0.000313991	-0.000118346	0.000313991	-0.000118346	-0.181723632	-0.141463568
240400000	-0.10881064	0.121559728	0.000353862	-0.000209828	0.000353862	-0.000209828	-0.10881064	0.121559728
242800000	0.132777168	0.03696756	0.000270635	-0.000219059	0.000270635	-0.000219059	0.132777168	0.03696756
245200000	0.058082008	-0.199366768	0.000369947	-0.000122126	0.000369947	-0.000122126	0.058082008	-0.199366768
247600000	-0.192291664	-0.122342456	0.000442795	-0.000138883	0.000442795	-0.000138883	-0.192291664	-0.122342456
250000000	-0.09476744	0.127188072	0.000372675	-0.000209671	0.000372675	-0.000209671	-0.09476744	0.127188072
