# Hz S RI R 50
10000000	0.402427648	-0.253107168	0.000052072	-0.000139912	0.000052072	-0.000139912	0.402427648	-0.253107168
12400000	-0.292590048	-0.438529888	-0.000058713	0.000173275	-0.000058713	0.000173275	-0.292590048	-0.438529888
14800000	-0.342319712	0.367363264	-0.000082241	-0.000016907	-0.000082241	-0.000016907	-0.342319712	0.367363264
17200000	0.329625344	0.285874656	-0.000090229	-0.000009949	-0.000090229	-0.000009949	0.329625344	0.285874656
19600000	0.321563392	-0.297987872	-0.000022506	-0.000117147	-0.000022506	-0.000117147	0.321563392	-0.297987872
22000000	-0.34548192	-0.333323104	0.000096056	-0.000224504	0.000096056	-0.000224504	-0.34548192	-0.333323104
24400000	-0.236437216	0.384407296	0.000193479	-0.000200712	0.000193479	-0.000200712	-0.236437216	0.384407296
26800000	0.345092544	0.206634368	0.00004882	0.000008357	0.00004882	0.000008357	0.345092544	0.206634368
29200000	0.24359696	-0.331348352	-0.000254375	-0.000040722	-0.000254375	-0.000040722	0.24359696	-0.331348352
31600000	-0.3782872	-0.231860112	-0.000147526	0.000053866	-0.000147526	0.000053866	-0.3782872	-0.231860112
34000000	-0.1464404	0.386959808	-0.000170356	0.000134245	-0.000170356	0.000134245	-0.1464404	0.386959808
36400000	0.35087152	0.143272096	-0.000015853	-0.00010161	-0.000015853	-0.00010161	0.35087152	0.143272096
38800000	0.18102008	-0.346323424	0.000153633	0.000090689	0.000153633	0.000090689	0.18102008	-0.346323424
41200000	-0.385714784	-0.150731072	-0.000067572	0.000141542	-0.000067572	0.000141542	-0.385714784	-0.150731072
43600000	-0.073730416	0.376855104	-0.000109794	-0.00013898	-0.000109794	-0.00013898	-0.073730416	0.376855104
46000000	0.348700576	0.085204264	-0.000025808	-0.000048314	-0.000025808	-0.000048314	0.348700576	0.085204264
48400000	0.119809744	-0.3510904	-0.000104937	0.000051059	-0.000104937	0.000051059	0.119809744	-0.3510904
50800000	-0.377561024	-0.076629368	-0.000039469	-0.000087898	-0.000039469	-0.000087898	-0.377561024	-0.076629368
53200000	-0.011753232	0.358140288	-0.000115716	0.000050648	-0.000115716	0.000050648	-0.011753232	0.358140288
55600000	0.341829248	0.032615732	-0.000026307	-0.000091249	-0.000026307	-0.000091249	0.341829248	0.032615732
58000000	0.060376648	-0.351221504	-0.000059018	-0.000104671	-0.000059018	-0.000104671	0.060376648	-0.351221504
60400000	-0.362033152	-0.001631809	0.000063129	-0.000037482	0.000063129	-0.000037482	-0.362033152	-0.001631809
62800000	0.048459212	0.336011488	0.000103142	-0.000295157	0.000103142	-0.000295157	0.048459212	0.336011488
65200000	0.331686624	-0.014309916	0.000132168	-0.000175239	0.000132168	-0.000175239	0.331686624	-0.014309916
67600000	0.013099478	-0.340459232	0.000237499	0.000021473	0.000237499	0.000021473	0.013099478	-0.340459232
70000000	-0.330749248	0.05257012	0.000136909	-0.000192595	0.000136909	-0.000192595	-0.330749248	0.05257012
72400000	0.097224928	0.304575136	0.000085231	-0.000144488	0.000085231	-0.000144488	0.097224928	0.304575136
74800000	0.317834208	-0.058871488	0.000079262	0.000248257	0.000079262	0.000248257	0.317834208	-0.058871488
77200000	-0.027518912	-0.329092128	-0.000064485	0.000307953	-0.000064485	0.000307953	-0.027518912	-0.329092128
79600000	-0.299440288	0.092673296	0.000045787	0.000008762	0.000045787	0.000008762	-0.299440288	0.092673296
82000000	0.13776512	0.268809824	-0.000086852	0.00000718	-0.000086852	0.00000718	0.13776512	0.268809824
84400000	0.296493504	-0.104163496	0.000187216	-0.000081802	0.000187216	-0.000081802	0.296493504	-0.104163496
86800000	-0.074356496	-0.308365024	0.000133195	0.000167949	0.000133195	0.000167949	-0.074356496	-0.308365024
89200000	-0.259913152	0.1307496	0.000005439	0.000068662	0.000005439	0.000068662	-0.259913152	0.1307496
91600000	0.172091344	0.229225792	0.000003584	0.000041093	0.000003584	0.000041093	0.172091344	0.229225792
94000000	0.272350624	-0.144087616	0.000217309	-0.000102719	0.000217309	-0.000102719	0.272350624	-0.144087616
96400000	-0.114127888	-0.2879712	0.000287657	0.000173086	0.000287657	0.000173086	-0.114127888	-0.2879712
98800000	-0.22340768	0.158347152	0.000181244	-0.00012912	0.000181244	-0.00012912	-0.22340768	0.158347152
101200000	0.199253488	0.193652	0.000035221	-0.000005611	0.000035221	-0.000005611	0.199253488	0.193652
103600000	0.247160848	-0.179777152	0.00008976	0.000029636	0.00008976	0.000029636	0.247160848	-0.179777152
106000000	-0.148093632	-0.264834976	0.000122211	0.000068019	0.000122211	0.000068019	-0.148093632	-0.264834976
108400000	-0.190660768	0.173761728	0.000060324	0.000007044	0.000060324	0.000007044	-0.190660768	0.173761728
110800000	0.213413184	0.15577944	0.000062392	-0.000005137	0.000062392	-0.000005137	0.213413184	0.15577944
113200000	0.213393632	-0.207569968	0.000054402	0.000016299	0.000054402	0.000016299	0.213393632	-0.207569968
115600000	-0.179345584	-0.230845232	0.000113034	0.00003927	0.000113034	0.00003927	-0.179345584	-0.230845232
118000000	-0.148800256	0.192418336	0.000118644	0.000001432	0.000118644	0.000001432	-0.148800256	0.192418336
120400000	0.230326112	0.114784112	0.00008297	-0.000003833	0.00008297	-0.000003833	0.230326112	0.114784112
122800000	0.177355824	-0.234824192	0.000045294	0.000037393	0.000045294	0.000037393	0.177355824	-0.234824192
125200000	-0.2046924	-0.193993936	0.000135949	0.000010895	0.000135949	0.000010895	-0.2046924	-0.193993936
127600000	-0.107702712	0.200172128	0.000179776	-0.000064767	0.000179776	-0.000064767	-0.107702712	0.200172128
130000000	0.23725656	0.074990976	0.000149301	-0.000029813	0.000149301	-0.000029813	0.23725656	0.074990976
132400000	0.142336896	-0.25244224	0.000064789	0.000116658	0.000064789	0.000116658	0.142336896	-0.25244224
134800000	-0.22025456	-0.162507408	0.000116095	0.000003802	0.000116095	0.000003802	-0.22025456	-0.162507408
137200000	-0.078361448	0.201722816	0.00015311	-0.000011198	0.00015311	-0.000011198	-0.078361448	0.201722816
139600000	0.239142208	0.044909576	0.00014314	-0.000001554	0.00014314	-0.000001554	0.239142208	0.044909576
142000000	0.112670496	-0.263193872	0.000126954	0.000049599	0.000126954	0.000049599	0.112670496	-0.263193872
144400000	-0.2273648	-0.132878128	0.000222527	-0.000027558	0.000222527	-0.000027558	-0.2273648	-0.132878128
146800000	-0.046034908	0.19590448	0.000086419	-0.000083757	0.000086419	-0.000083757	-0.046034908	0.19590448
149200000	0.236107056	0.007526723	0.000100061	-0.000047259	0.000100061	-0.000047259	0.236107056	0.007526723
151600000	0.07424808	-0.272180512	0.000173312	0.000052591	0.000173312	0.000052591	0.07424808	-0.272180512
154000000	-0.233296576	-0.097988448	0.000155316	0.000004621	0.000155316	0.000004621	-0.233296576	-0.097988448
156400000	-0.014213246	0.188250864	0.0001161	-0.00003128	0.0001161	-0.00003128	-0.014213246	0.188250864
158800000	0.229836496	-0.028924496	0.000127439	0.000008606	0.000127439	0.000008606	0.229836496	-0.028924496
161200000	0.034971992	-0.278298304	0.000178955	-0.000003062	0.000178955	-0.000003062	0.034971992	-0.278298304
163600000	-0.237718736	-0.0655792	0.000256079	-0.000001478	0.000256079	-0.000001478	-0.237718736	-0.0655792
166000000	0.01026759	0.178746832	0.00012928	-0.000094151	0.00012928	-0.000094151	0.01026759	0.178746832
168400000	0.217655856	-0.059335328	0.000092555	-0.000112152	0.000092555	-0.000112152	0.217655856	-0.059335328
170800000	-0.004513699	-0.275388384	0.00011754	-0.000104928	0.00011754	-0.000104928	-0.004513699	-0.275388384
173200000	-0.23497448	-0.029926606	0.000204521	-0.000091053	0.000204521	-0.000091053	-0.23497448	-0.029926606
175600000	0.034668872	0.166488176	0.000114964	-0.000121391	0.000114964	-0.000121391	0.034668872	0.166488176
178000000	0.200897936	-0.087314	0.000074937	-0.000101036	0.000074937	-0.000101036	0.200897936	-0.087314
180400000	-0.04476862	-0.263248496	0.00010771	-0.000085591	0.00010771	-0.000085591	-0.04476862	-0.263248496
182800000	-0.224625728	0.010472614	0.000081439	-0.000173956	0.000081439	-0.000173956	-0.224625728	0.010472614
185200000	0.060995708	0.154199264	0.000083895	-0.000129244	0.000083895	-0.000129244	0.060995708	0.154199264
187600000	0.190749984	-0.10796456	0.000081879	-0.000077154	0.000081879	-0.000077154	0.190749984	-0.10796456
190000000	-0.066129952	-0.254969056	0.00009139	-0.000130251	0.00009139	-0.000130251	-0.066129952	-0.254969056
192400000	-0.210234208	0.029732584	0.000180931	-0.000125184	0.000180931	-0.000125184	-0.210234208	0.029732584
194800000	0.080085648	0.134711264	0.000119449	-0.000186124	0.000119449	-0.000186124	0.080085648	0.134711264
197200000	0.171418416	-0.134876688	0.000120223	-0.000159864	0.000120223	-0.000159864	0.171418416	-0.134876688
199600000	-0.099261976	-0.239388112	0.000145627	-0.000175808	0.000145627	-0.000175808	-0.099261976	-0.239388112
202000000	-0.1918312	0.055407444	0.00014104	-0.000155256	0.00014104	-0.000155256	-0.1918312	0.055407444
204400000	0.096518256	0.110303808	0.000150388	-0.000226522	0.000150388	-0.000226522	0.096518256	0.110303808
206800000	0.145852352	-0.15691728	0.000176865	-0.000149701	0.000176865	-0.000149701	0.145852352	-0.15691728
209200000	-0.128426808	-0.218904336	0.000158966	-0.000181492	0.000158966	-0.000181492	-0.128426808	-0.218904336
211600000	-0.177086496	0.076215696	0.000217992	-0.00021262	0.000217992	-0.00021262	-0.177086496	0.076215696
214000000	0.106534784	0.099894504	0.000192559	-0.000177769	0.000192559	-0.000177769	0.106534784	0.099894504
216400000	0.131963208	-0.1675744	0.000156268	-0.000110591	0.000156268	-0.000110591	0.131963208	-0.1675744
218800000	-0.144591136	-0.200726448	0.000266272	-0.000169728	0.000266272	-0.000169728	-0.144591136	-0.200726448
221200000	-0.156168576	0.091193216	0.000331831	-0.000048164	0.000331831	-0.000048164	-0.156168576	0.091193216
223600000	0.118310664	0.073724584	0.000251792	-0.000069429	0.000251792	-0.000069429	0.118310664	0.073724584
226000000	0.10096204	-0.18663064	0.000231966	-0.000067709	0.000231966	-0.000067709	0.10096204	-0.18663064
228400000	-0.170557456	-0.170079856	0.000235949	-0.000030009	0.000235949	-0.000030009	-0.170557456	-0.170079856
230800000	-0.13227108	0.108618352	0.000251379	-0.000089534	0.000251379	-0.000089534	-0.13227108	0.108618352
233200000	0.126265112	0.055889172	0.000216244	-0.000113827	0.000216244	-0.000113827	0.126265112	0.055889172
235600000	0.0774356	-0.192654304	0.000296433	-0.000018741	0.000296433	-0.000018741	0.0774356	-0.192654304
238000000	-0.181944384	-0.141402608	0.00024566	-0.000068434	0.00024566	-0.000068434	-0.181944384	-0.141402608
240400000	-0.108858504	0.121761424	0.000309137	-0.000056719	0.000309137	-0.000056719	-0.108858504	0.121761424
242800000	0.133242112	0.036917328	0.000257463	-0.000131556	0.000257463	-0.000131556	0.133242112	0.036917328
245200000	0.057563852	-0.199759344	0.00036853	-0.000198514	0.00036853	-0.000198514	0.057563852	-0.199759344
247600000	-0.192156704	-0.122125208	0.000404495	-0.00014846	0.000404495	-0.00014846	-0.192156704	-0.122125208
250000000	-0.094759952	0.12710072	0.000401864	-0.000146549	0.000401864	-0.000146549	-0.094759952	0.12710072
