# Hz S RI R 50
10000000	-0.40525888	0.349180768	-0.000040668	0.00006406	-0.000040668	0.00006406	-0.40525888	0.349180768
12400000	0.318082496	0.326987328	-0.000155679	0.000077107	-0.000155679	0.000077107	0.318082496	0.326987328
14800000	0.357145152	-0.280289792	-0.000029027	-0.000038198	-0.000029027	-0.000038198	0.357145152	-0.280289792
17200000	-0.327220032	-0.37830816	0.000148475	-0.000115759	0.000148475	-0.000115759	-0.327220032	-0.37830816
19600000	-0.27927664	0.380972576	0.000053621	-0.000113849	0.000053621	-0.000113849	-0.27927664	0.380972576
22000000	0.340966464	0.239945712	-0.000018369	0.000045472	-0.000018369	0.000045472	0.340966464	0.239945712
24400000	0.279050656	-0.318654208	0.000217577	0.000012492	0.000217577	0.000012492	0.279050656	-0.318654208
26800000	-0.365568224	-0.280781024	0.000031948	0.000367772	0.000031948	0.000367772	-0.365568224	-0.280781024
29200000	-0.190046736	0.386585408	-0.000151894	-0.000107348	-0.000151894	-0.000107348	-0.190046736	0.386585408
31600000	0.34807984	0.173902416	0.000037154	-0.000104347	0.000037154	-0.000104347	0.34807984	0.173902416
34000000	0.20968888	-0.339732448	0.000105623	0.000003359	0.000105623	0.000003359	0.20968888	-0.339732448
36400000	-0.383956224	-0.184911152	0.000074899	0.000156282	0.000074899	0.000156282	-0.383956224	-0.184911152
38800000	-0.102069016	0.38198672	-0.000128874	-0.000023827	-0.000128874	-0.000023827	-0.102069016	0.38198672
41200000	0.35078688	0.106776992	0.000009168	-0.000069574	0.000009168	-0.000069574	0.35078688	0.106776992
43600000	0.141267024	-0.35249824	0.000053764	-0.000046312	0.000053764	-0.000046312	0.141267024	-0.35249824
46000000	-0.385598784	-0.098798696	0.000128918	0.000050464	0.000128918	0.000050464	-0.385598784	-0.098798696
48400000	-0.028823006	0.368083104	-0.000037305	0.000129939	-0.000037305	0.000129939	-0.028823006	0.368083104
50800000	0.34705072	0.04676688	0.000046042	-0.000107677	0.000046042	-0.000107677	0.34705072	0.04676688
53200000	0.077434904	-0.355087072	-0.000037987	-0.000100658	-0.000037987	-0.000100658	0.077434904	-0.355087072
55600000	-0.37129776	-0.02406585	0.000140292	-0.000274191	0.000140292	-0.000274191	-0.37129776	-0.02406585
58000000	0.029210488	0.345073024	0.000141585	0.000159146	0.000141585	0.000159146	0.029210488	0.345073024
60400000	0.3358416	-0.000680321	-0.000177343	-0.00000871	-0.000177343	-0.00000871	0.3358416	-0.000680321
62800000	0.023054248	-0.345852032	0.000182891	-0.000147882	0.000182891	-0.000147882	0.023054248	-0.345852032
65200000	-0.343714048	0.043183672	0.000177389	-0.000110237	0.000177389	-0.000110237	-0.343714048	0.043183672
67600000	0.088079784	0.315911104	-0.00000161	0.00020032	-0.00000161	0.00020032	0.088079784	0.315911104
70000000	0.322469472	-0.051269312	-0.00002209	-0.000176592	-0.00002209	-0.000176592	0.322469472	-0.051269312
72400000	-0.026316036	-0.332461248	0.00007689	0.000076078	0.00007689	0.000076078	-0.026316036	-0.332461248
74800000	-0.306034656	0.095170144	0.000068123	-0.000129197	0.000068123	-0.000129197	-0.306034656	0.095170144
77200000	0.135841632	0.277368768	0.000001598	0.000012315	0.000001598	0.000012315	0.135841632	0.277368768
79600000	0.301636352	-0.099290248	-0.000064237	0.000027979	-0.000064237	0.000027979	0.301636352	-0.099290248
82000000	-0.07106132	-0.31379792	0.000256856	0.000042216	0.000256856	0.000042216	-0.07106132	-0.31379792
84400000	-0.270866208	0.13065584	0.000240878	0.000117849	0.000240878	0.000117849	-0.270866208	0.13065584
86800000	0.168607104	0.2412932	0.00017887	-0.000068001	0.00017887	-0.000068001	0.168607104	0.2412932
89200000	0.279702624	-0.137343376	0.000193138	0.000101232	0.000193138	0.000101232	0.279702624	-0.137343376
91600000	-0.110481392	-0.292140352	0.000352962	0.000193554	0.000352962	0.000193554	-0.110481392	-0.292140352
94000000	-0.22999224	0.158763168	-0.000035839	0.000199212	-0.000035839	0.000199212	-0.22999224	0.158763168
96400000	0.195459136	0.19904712	0.000032987	0.000121763	0.000032987	0.000121763	0.195459136	0.19904712
98800000	0.249567808	-0.17257944	0.000197274	0.00005917	0.000197274	0.00005917	0.249567808	-0.17257944
101200000	-0.146249296	-0.266591584	0.000030591	-0.00001598	0.000030591	-0.00001598	-0.146249296	-0.266591584
103600000	-0.192381008	0.179159648	0.000072682	0.000018133	0.000072682	0.000018133	-0.192381008	0.179159648
106000000	0.21817232	0.16049816	0.000003737	0.000001893	0.000003737	0.000001893	0.21817232	0.16049816
108400000	0.218727168	-0.208433168	0.00000192	0.000024176	0.00000192	0.000024176	0.218727168	-0.208433168
110800000	-0.181023616	-0.235030048	0.000045533	-0.000037661	0.000045533	-0.000037661	-0.181023616	-0.235030048
113200000	-0.154593536	0.195610704	0.000116495	-0.000025368	0.000116495	-0.000025368	-0.154593536	0.195610704
115600000	0.229804624	0.124331632	0.000101706	-0.000020745	0.000101706	-0.000020745	0.229804624	0.124331632
118000000	0.186944128	-0.228928768	0.000096258	0.000003519	0.000096258	0.000003519	0.186944128	-0.228928768
120400000	-0.19930472	-0.203519936	0.000125721	0.000079447	0.000125721	0.000079447	-0.19930472	-0.203519936
122800000	-0.119288784	0.2006044	0.00011856	-0.000001663	0.00011856	-0.000001663	-0.119288784	0.2006044
125200000	0.237013632	0.088360928	0.000070022	0.000021393	0.000070022	0.000021393	0.237013632	0.088360928
127600000	0.153839088	-0.247816352	0.000070519	0.000024771	0.000070519	0.000024771	0.153839088	-0.247816352
130000000	-0.216994288	-0.169376752	0.000153284	-0.000022097	0.000153284	-0.000022097	-0.216994288	-0.169376752
132400000	-0.081047224	0.20246432	0.000125226	-0.000056204	0.000125226	-0.000056204	-0.081047224	0.20246432
134800000	0.23978192	0.047476912	0.000117621	-0.000044397	0.000117621	-0.000044397	0.23978192	0.047476912
137200000	0.111418352	-0.262417232	0.000127662	-1.43e-7	0.000127662	-1.43e-7	0.111418352	-0.262417232
139600000	-0.229597088	-0.125431064	0.000155699	-0.000038787	0.000155699	-0.000038787	-0.229597088	-0.125431064
142000000	-0.0385858	0.20131336	0.000108056	-0.000081784	0.000108056	-0.000081784	-0.0385858	0.20131336
144400000	0.240910736	0.005728062	0.000142497	-0.000049045	0.000142497	-0.000049045	0.240910736	0.005728062
146800000	0.073188912	-0.274226976	0.000165439	0.000013129	0.000165439	0.000013129	0.073188912	-0.274226976
149200000	-0.236446672	-0.091946464	0.000129644	0.000030654	0.000129644	0.000030654	-0.236446672	-0.091946464
151600000	-0.008229147	0.193418976	0.000159357	0.000032019	0.000159357	0.000032019	-0.008229147	0.193418976
154000000	0.234949488	-0.029085462	0.000100561	-0.000056377	0.000100561	-0.000056377	0.234949488	-0.029085462
156400000	0.035562444	-0.278678784	0.00021406	-0.000061783	0.00021406	-0.000061783	0.035562444	-0.278678784
158800000	-0.235624224	-0.059780212	0.000170813	-0.000060985	0.000170813	-0.000060985	-0.235624224	-0.059780212
161200000	0.018198072	0.178807072	0.000076104	-0.000118798	0.000076104	-0.000118798	0.018198072	0.178807072
163600000	0.221220592	-0.062058084	0.000171643	-0.000071869	0.000171643	-0.000071869	0.221220592	-0.062058084
166000000	-0.004775946	-0.27722912	0.000190864	0.000005455	0.000190864	0.000005455	-0.004775946	-0.27722912
168400000	-0.234519872	-0.026291612	0.000184839	-0.000029637	0.000184839	-0.000029637	-0.234519872	-0.026291612
170800000	0.041072784	0.168130096	0.000034978	-0.000120757	0.000034978	-0.000120757	0.041072784	0.168130096
173200000	0.206966416	-0.090496808	-0.000002352	-0.000114103	-0.000002352	-0.000114103	0.206966416	-0.090496808
175600000	-0.0424022	-0.268734912	0.000127531	-0.000116724	0.000127531	-0.000116724	-0.0424022	-0.268734912
178000000	-0.226650912	0.005798525	0.00004916	-0.000171063	0.00004916	-0.000171063	-0.226650912	0.005798525
180400000	0.05886932	0.15578288	0.000025417	-0.000144502	0.000025417	-0.000144502	0.05886932	0.15578288
182800000	0.19079104	-0.109803032	-0.000040444	-0.000074382	-0.000040444	-0.000074382	0.19079104	-0.109803032
185200000	-0.072610832	-0.250508912	-0.000006871	-0.000096639	-0.000006871	-0.000096639	-0.072610832	-0.250508912
187600000	-0.205374944	0.040699612	0.000055997	-0.000231385	0.000055997	-0.000231385	-0.205374944	0.040699612
190000000	0.090136536	0.133465264	-0.000014566	-0.00017898	-0.000014566	-0.00017898	0.090136536	0.133465264
192400000	0.172835984	-0.140805136	0.000093834	-0.000180711	0.000093834	-0.000180711	0.172835984	-0.140805136
194800000	-0.103436608	-0.238862656	0.000130558	-0.000070659	0.000130558	-0.000070659	-0.103436608	-0.238862656
197200000	-0.190901808	0.061640972	0.00012965	-0.000128582	0.00012965	-0.000128582	-0.190901808	0.061640972
199600000	0.103547176	0.113434872	0.000105248	-0.000115209	0.000105248	-0.000115209	0.103547176	0.113434872
202000000	0.150986976	-0.160346688	0.000101184	-0.000066667	0.000101184	-0.000066667	0.150986976	-0.160346688
204400000	-0.128181128	-0.22055984	0.000141851	-0.000123866	0.000141851	-0.000123866	-0.128181128	-0.22055984
206800000	-0.175088672	0.079131416	0.000116528	-0.000180951	0.000116528	-0.000180951	-0.175088672	0.079131416
209200000	0.11253092	0.093301624	0.000158181	-0.000129901	0.000158181	-0.000129901	0.11253092	0.093301624
211600000	0.1226638	-0.175488096	0.000124691	-0.000100265	0.000124691	-0.000100265	0.1226638	-0.175488096
214000000	-0.155908512	-0.18986144	0.000246366	-0.000114075	0.000246366	-0.000114075	-0.155908512	-0.18986144
216400000	-0.145428448	0.103692904	0.000273265	-0.000072901	0.000273265	-0.000072901	-0.145428448	0.103692904
218800000	0.12919548	0.068148248	0.000229185	-0.000097768	0.000229185	-0.000097768	0.12919548	0.068148248
221200000	0.101132064	-0.193927488	0.000274468	-0.000038895	0.000274468	-0.000038895	0.101132064	-0.193927488
223600000	-0.174584688	-0.171680656	0.000362993	-0.000062579	0.000362993	-0.000062579	-0.174584688	-0.171680656
226000000	-0.130623488	0.112323176	0.000260567	-0.000134833	0.000260567	-0.000134833	-0.130623488	0.112323176
228400000	0.128614504	0.05021538	0.000215604	-0.00008232	0.000215604	-0.00008232	0.128614504	0.05021538
230800000	0.072758936	-0.196698896	0.000247114	-0.0000918	0.000247114	-0.0000918	0.072758936	-0.196698896
233200000	-0.188507056	-0.139403424	0.000337599	-0.000192448	0.000337599	-0.000192448	-0.188507056	-0.139403424
235600000	-0.103811144	0.123648704	0.00031054	-0.0001822	0.00031054	-0.0001822	-0.103811144	0.123648704
238000000	0.133827984	0.02908557	0.000275896	-0.000154128	0.000275896	-0.000154128	0.133827984	0.02908557
240400000	0.04857262	-0.203841664	0.000330276	-0.000134654	0.000330276	-0.000134654	0.04857262	-0.203841664
242800000	-0.196736928	-0.107959184	0.000333187	-0.000096576	0.000333187	-0.000096576	-0.196736928	-0.107959184
245200000	-0.074264824	0.129563344	0.000288766	-0.000214155	0.000288766	-0.000214155	-0.074264824	0.129563344
247600000	0.13735976	0.001393108	0.000300478	-0.000160937	0.000300478	-0.000160937	0.13735976	0.001393108
250000000	0.014329292	-0.209317216	0.000312373	-0.000185751	0.000312373	-0.000185751	0.014329292	-0.209317216
