# Hz S RI R 50
10000000	-0.404592128	0.349130784	-0.000112206	0.000194382	-0.000112206	0.000194382	-0.404592128	0.349130784
12400000	0.317903008	0.327199008	0.000088111	-0.00021269	0.000088111	-0.00021269	0.317903008	0.327199008
14800000	0.357293728	-0.280714752	-0.000079817	0.000092244	-0.000079817	0.000092244	0.357293728	-0.280714752
17200000	-0.326992928	-0.378592224	-0.000161354	0.000137724	-0.000161354	0.000137724	-0.326992928	-0.378592224
19600000	-0.279409568	0.380854944	0.000021556	0.000162066	0.000021556	0.000162066	-0.279409568	0.380854944
22000000	0.341055264	0.239937024	0.000224531	0.000220265	0.000224531	0.000220265	0.341055264	0.239937024
24400000	0.279408128	-0.31861824	-0.000133459	-0.000115166	-0.000133459	-0.000115166	0.279408128	-0.31861824
26800000	-0.365351456	-0.280735712	-0.000214462	0.000200533	-0.000214462	0.000200533	-0.365351456	-0.280735712
29200000	-0.190219008	0.38671072	0.000195608	0.000004094	0.000195608	0.000004094	-0.190219008	0.38671072
31600000	0.348044032	0.173691936	0.000093572	0.000234278	0.000093572	0.000234278	0.348044032	0.173691936
34000000	0.209739408	-0.339995168	0.000083964	0.000268004	0.000083964	0.000268004	0.209739408	-0.339995168
36400000	-0.38439904	-0.18433848	0.000265378	-0.000356818	0.000265378	-0.000356818	-0.38439904	-0.18433848
38800000	-0.102259224	0.381953376	-0.000159319	0.000123434	-0.000159319	0.000123434	-0.102259224	0.381953376
41200000	0.350767488	0.106632008	0.000022618	0.000054633	0.000022618	0.000054633	0.350767488	0.106632008
43600000	0.141151616	-0.3524288	0.000149594	-0.000125658	0.000149594	-0.000125658	0.141151616	-0.3524288
46000000	-0.385833088	-0.098878608	0.000250387	0.000112006	0.000250387	0.000112006	-0.385833088	-0.098878608
48400000	-0.028620776	0.36837552	0.000319731	-0.000268261	0.000319731	-0.000268261	-0.028620776	0.36837552
50800000	0.34696736	0.046506732	0.00014838	0.000086615	0.00014838	0.000086615	0.34696736	0.046506732
53200000	0.077276728	-0.355312064	0.000185806	0.000026437	0.000185806	0.000026437	0.077276728	-0.355312064
55600000	-0.371327328	-0.024605926	-0.000088921	0.000347231	-0.000088921	0.000347231	-0.371327328	-0.024605926
58000000	0.029755276	0.34531216	-0.000234612	-0.000074569	-0.000234612	-0.000074569	0.029755276	0.34531216
60400000	0.33572304	-0.000599274	0.000144367	-0.000195542	0.000144367	-0.000195542	0.33572304	-0.000599274
62800000	0.023032644	-0.345705888	0.000130193	-0.000136426	0.000130193	-0.000136426	0.023032644	-0.345705888
65200000	-0.343682048	0.042831784	0.000063875	0.000165329	0.000063875	0.000165329	-0.343682048	0.042831784
67600000	0.087888696	0.316146592	0.000281871	-0.000004807	0.000281871	-0.000004807	0.087888696	0.316146592
70000000	0.322464256	-0.051348256	0.000151316	-0.000240099	0.000151316	-0.000240099	0.322464256	-0.051348256
72400000	-0.026575634	-0.332554688	0.000221731	0.000149292	0.000221731	0.000149292	-0.026575634	-0.332554688
74800000	-0.306180032	0.095104448	-0.000021478	0.000047756	-0.000021478	0.000047756	-0.306180032	0.095104448
77200000	0.135997392	0.277449312	0.000064238	-0.00010871	0.000064238	-0.00010871	0.135997392	0.277449312
79600000	0.301508672	-0.099435664	0.000193009	0.000269648	0.000193009	0.000269648	0.301508672	-0.099435664
82000000	-0.071167264	-0.313818912	0.000243423	-0.000127474	0.000243423	-0.000127474	-0.071167264	-0.313818912
84400000	-0.271078656	0.13063632	0.000032111	0.000205833	0.000032111	0.000205833	-0.271078656	0.13063632
86800000	0.168639072	0.24142632	0.000276566	-0.000109605	0.000276566	-0.000109605	0.168639072	0.24142632
89200000	0.2796528	-0.137592384	0.000320913	0.000098665	0.000320913	0.000098665	0.2796528	-0.137592384
91600000	-0.110280176	-0.292370208	-0.00003221	0.000381992	-0.00003221	0.000381992	-0.110280176	-0.292370208
94000000	-0.230043936	0.159385424	0.000013905	-0.000296899	0.000013905	-0.000296899	-0.230043936	0.159385424
96400000	0.195451776	0.199090944	0.000140792	0.000055802	0.000140792	0.000055802	0.195451776	0.199090944
98800000	0.249670768	-0.17239344	0.000147058	-0.000121673	0.000147058	-0.000121673	0.249670768	-0.17239344
101200000	-0.146345648	-0.26672656	0.000032016	0.00004831	0.000032016	0.00004831	-0.146345648	-0.26672656
103600000	-0.192398288	0.179300192	-0.00002205	-0.000048507	-0.00002205	-0.000048507	-0.192398288	0.179300192
106000000	0.2183964	0.160588704	0.000021012	-0.0000275	0.000021012	-0.0000275	0.2183964	0.160588704
108400000	0.218726768	-0.208488272	0.000005808	0.000035881	0.000005808	0.000035881	0.218726768	-0.208488272
110800000	-0.181256304	-0.235399296	0.000115483	0.000040512	0.000115483	0.000040512	-0.181256304	-0.235399296
113200000	-0.154687696	0.195715824	0.00006492	-0.000057781	0.00006492	-0.000057781	-0.154687696	0.195715824
115600000	0.229859488	0.12427412	0.000037344	-0.000023825	0.000037344	-0.000023825	0.229859488	0.12427412
118000000	0.187000832	-0.229024864	0.000112328	0.000022119	0.000112328	0.000022119	0.187000832	-0.229024864
120400000	-0.19948464	-0.203650624	0.000167079	0.00005165	0.000167079	0.00005165	-0.19948464	-0.203650624
122800000	-0.119319088	0.200773472	0.000139014	0.000022947	0.000139014	0.000022947	-0.119319088	0.200773472
125200000	0.23713296	0.08835892	0.000088418	-0.000012951	0.000088418	-0.000012951	0.23713296	0.08835892
127600000	0.153790352	-0.247895312	0.000140365	-0.000005747	0.000140365	-0.000005747	0.153790352	-0.247895312
130000000	-0.217249648	-0.169531472	0.000195061	-0.000012675	0.000195061	-0.000012675	-0.217249648	-0.169531472
132400000	-0.08121792	0.20264856	0.000097442	-0.000060638	0.000097442	-0.000060638	-0.08121792	0.20264856
134800000	0.23987776	0.047441116	0.000142316	-0.000036882	0.000142316	-0.000036882	0.23987776	0.047441116
137200000	0.111465608	-0.262474832	0.000137244	0.000055695	0.000137244	0.000055695	0.111465608	-0.262474832
139600000	-0.229695104	-0.125378472	0.000130805	-0.00004797	0.000130805	-0.00004797	-0.229695104	-0.125378472
142000000	-0.038606104	0.201269072	0.000142874	0.00002327	0.000142874	0.00002327	-0.038606104	0.201269072
144400000	0.240881296	0.005862769	0.000130378	0.000015324	0.000130378	0.000015324	0.240881296	0.005862769
146800000	0.073075248	-0.274276096	0.000115504	-0.000044223	0.000115504	-0.000044223	0.073075248	-0.274276096
149200000	-0.236517104	-0.091718032	0.000116707	-0.000048748	0.000116707	-0.000048748	-0.236517104	-0.091718032
151600000	-0.00820948	0.19363528	0.000191059	-0.00008082	0.000191059	-0.00008082	-0.00820948	0.19363528
154000000	0.234870752	-0.029033968	0.000176485	-0.000044577	0.000176485	-0.000044577	0.234870752	-0.029033968
156400000	0.03567378	-0.27888208	0.000219244	0.000006121	0.000219244	0.000006121	0.03567378	-0.27888208
158800000	-0.235705168	-0.059957268	0.00019457	0.000043413	0.00019457	0.000043413	-0.235705168	-0.059957268
161200000	0.018075956	0.178582816	0.000117557	-0.000023323	0.000117557	-0.000023323	0.018075956	0.178582816
163600000	0.221253376	-0.062023744	0.000061315	-0.000061742	0.000061315	-0.000061742	0.221253376	-0.062023744
166000000	-0.004769987	-0.277256384	0.000150035	-0.000083957	0.000150035	-0.000083957	-0.004769987	-0.277256384
168400000	-0.234686816	-0.026217614	0.000259862	-0.000143399	0.000259862	-0.000143399	-0.234686816	-0.026217614
170800000	0.04098494	0.168281952	0.000175501	-0.000121616	0.000175501	-0.000121616	0.04098494	0.168281952
173200000	0.206919296	-0.090594864	0.000099828	-0.0000269	0.000099828	-0.0000269	0.206919296	-0.090594864
175600000	-0.042481672	-0.268898752	0.0000957	-0.000014276	0.0000957	-0.000014276	-0.042481672	-0.268898752
178000000	-0.226763312	0.005735973	0.00004415	-0.000130892	0.00004415	-0.000130892	-0.226763312	0.005735973
180400000	0.059188664	0.155894	0.000066674	-0.000154215	0.000066674	-0.000154215	0.059188664	0.155894
182800000	0.190797024	-0.109833048	0.000075111	-0.000125617	0.000075111	-0.000125617	0.190797024	-0.109833048
185200000	-0.072827368	-0.250510848	0.000106331	-0.000128235	0.000106331	-0.000128235	-0.072827368	-0.250510848
187600000	-0.205466688	0.040650652	0.000071517	-0.000190829	0.000071517	-0.000190829	-0.205466688	0.040650652
190000000	0.090006496	0.133589464	0.000044518	-0.000177652	0.000044518	-0.000177652	0.090006496	0.133589464
192400000	0.172783712	-0.140809376	0.000122801	-0.000181851	0.000122801	-0.000181851	0.172783712	-0.140809376
194800000	-0.103439696	-0.238877696	0.000173372	-0.000151034	0.000173372	-0.000151034	-0.103439696	-0.238877696
197200000	-0.190995456	0.061619356	0.000175545	-0.00013931	0.000175545	-0.00013931	-0.190995456	0.061619356
199600000	0.103531944	0.113682584	0.000115511	-0.000182906	0.000115511	-0.000182906	0.103531944	0.113682584
202000000	0.150962208	-0.160226176	0.000208281	-0.000075357	0.000208281	-0.000075357	0.150962208	-0.160226176
204400000	-0.12829988	-0.220537744	0.000247003	-0.000070498	0.000247003	-0.000070498	-0.12829988	-0.220537744
206800000	-0.175137072	0.07909592	0.000151662	-0.000120298	0.000151662	-0.000120298	-0.175137072	0.07909592
209200000	0.11254572	0.093276096	0.000141435	-0.000091956	0.000141435	-0.000091956	0.11254572	0.093276096
211600000	0.1225502	-0.175350032	0.000132953	-0.000057857	0.000132953	-0.000057857	0.1225502	-0.175350032
214000000	-0.155790496	-0.1897984	0.0002545	-0.00002141	0.0002545	-0.00002141	-0.155790496	-0.1897984
216400000	-0.145362176	0.103651624	0.000247018	-0.000074852	0.000247018	-0.000074852	-0.145362176	0.103651624
218800000	0.129306288	0.068165368	0.000186611	-0.000162121	0.000186611	-0.000162121	0.129306288	0.068165368
221200000	0.101251064	-0.193820672	0.000243959	-0.000157717	0.000243959	-0.000157717	0.101251064	-0.193820672
223600000	-0.174526384	-0.171711408	0.000306488	-0.000187103	0.000306488	-0.000187103	-0.174526384	-0.171711408
226000000	-0.130742896	0.112298824	0.000250298	-0.000204959	0.000250298	-0.000204959	-0.130742896	0.112298824
228400000	0.128597576	0.050285468	0.000211318	-0.000144353	0.000211318	-0.000144353	0.128597576	0.050285468
230800000	0.072721096	-0.196457376	0.00028828	-0.000185738	0.00028828	-0.000185738	0.072721096	-0.196457376
233200000	-0.188450544	-0.139445184	0.000373012	-0.000104499	0.000373012	-0.000104499	-0.188450544	-0.139445184
235600000	-0.103801176	0.12360952	0.000384184	-0.00019791	0.000384184	-0.00019791	-0.103801176	0.12360952
238000000	0.133756056	0.029037318	0.000292213	-0.000127394	0.000292213	-0.000127394	0.133756056	0.029037318
240400000	0.048522424	-0.203712272	0.000295613	-0.000189918	0.000295613	-0.000189918	0.048522424	-0.203712272
242800000	-0.196776576	-0.107906392	0.000382915	-0.00016664	0.000382915	-0.00016664	-0.196776576	-0.107906392
245200000	-0.074268776	0.129486888	0.000403512	-0.000141205	0.000403512	-0.000141205	-0.074268776	0.129486888
247600000	0.137358912	0.001439599	0.000322629	-0.000150229	0.000322629	-0.000150229	0.137358912	0.001439599
250000000	0.01443432	-0.209424224	0.000348118	-0.000088104	0.000348118	-0.000088104	0.01443432	-0.209424224
