! https://github.com/szoftveres 
# Hz S RI R 50
300000000.0	-0.61872833	0.77401228	0.00621924	0.00452280	0.00621924	0.00452280	-0.61872833	0.77401228	
305000000.0	-0.60501484	0.78470191	0.00688860	0.00483266	0.00688860	0.00483266	-0.60501484	0.78470191	
310000000.0	-0.59099169	0.79523716	0.00761849	0.00515168	0.00761849	0.00515168	-0.59099169	0.79523716	
315000000.0	-0.57665431	0.80561084	0.00841336	0.00547872	0.00841336	0.00547872	-0.57665431	0.80561084	
320000000.0	-0.56199800	0.81581538	0.00927794	0.00581243	0.00927794	0.00581243	-0.56199800	0.81581538	
325000000.0	-0.54701794	0.82584280	0.01021719	0.00615116	0.01021719	0.00615116	-0.54701794	0.82584280	
330000000.0	-0.53170924	0.83568471	0.01123634	0.00649300	0.01123634	0.00649300	-0.53170924	0.83568471	
335000000.0	-0.51606687	0.84533225	0.01234090	0.00683572	0.01234090	0.00683572	-0.51606687	0.84533225	
340000000.0	-0.50008574	0.85477610	0.01353666	0.00717673	0.01353666	0.00717673	-0.50008574	0.85477610	
345000000.0	-0.48376061	0.86400638	0.01482969	0.00751304	0.01482969	0.00751304	-0.48376061	0.86400638	
350000000.0	-0.46708620	0.87301269	0.01622634	0.00784125	0.01622634	0.00784125	-0.46708620	0.87301269	
355000000.0	-0.45005713	0.88178401	0.01773327	0.00815749	0.01773327	0.00815749	-0.45005713	0.88178401	
360000000.0	-0.43266793	0.89030872	0.01935741	0.00845736	0.01935741	0.00845736	-0.43266793	0.89030872	
365000000.0	-0.41491309	0.89857447	0.02110599	0.00873589	0.02110599	0.00873589	-0.41491309	0.89857447	
370000000.0	-0.39678704	0.90656822	0.02298652	0.00898749	0.02298652	0.00898749	-0.39678704	0.90656822	
375000000.0	-0.37828418	0.91427613	0.02500678	0.00920589	0.02500678	0.00920589	-0.37828418	0.91427613	
380000000.0	-0.35939890	0.92168350	0.02717485	0.00938406	0.02717485	0.00938406	-0.35939890	0.92168350	
385000000.0	-0.34012560	0.92877477	0.02949902	0.00951417	0.02949902	0.00951417	-0.34012560	0.92877477	
390000000.0	-0.32045872	0.93553337	0.03198784	0.00958748	0.03198784	0.00958748	-0.32045872	0.93553337	
395000000.0	-0.30039280	0.94194171	0.03465005	0.00959428	0.03465005	0.00959428	-0.30039280	0.94194171	
400000000.0	-0.27992248	0.94798108	0.03749459	0.00952381	0.03749459	0.00952381	-0.27992248	0.94798108	
405000000.0	-0.25904257	0.95363157	0.04053050	0.00936415	0.04053050	0.00936415	-0.25904257	0.95363157	
410000000.0	-0.23774810	0.95887197	0.04376693	0.00910213	0.04376693	0.00910213	-0.23774810	0.95887197	
415000000.0	-0.21603441	0.96367971	0.04721306	0.00872322	0.04721306	0.00872322	-0.21603441	0.96367971	
420000000.0	-0.19389722	0.96803073	0.05087799	0.00821143	0.05087799	0.00821143	-0.19389722	0.96803073	
425000000.0	-0.17133269	0.97189937	0.05477073	0.00754918	0.05477073	0.00754918	-0.17133269	0.97189937	
430000000.0	-0.14833758	0.97525829	0.05890003	0.00671717	0.05890003	0.00671717	-0.14833758	0.97525829	
435000000.0	-0.12490934	0.97807834	0.06327431	0.00569427	0.06327431	0.00569427	-0.12490934	0.97807834	
440000000.0	-0.10104629	0.98032843	0.06790148	0.00445737	0.06790148	0.00445737	-0.10104629	0.98032843	
445000000.0	-0.07674773	0.98197543	0.07278880	0.00298123	0.07278880	0.00298123	-0.07674773	0.98197543	
450000000.0	-0.05201422	0.98298401	0.07794269	0.00123838	0.07794269	0.00123838	-0.05201422	0.98298401	
455000000.0	-0.02684773	0.98331656	0.08336848	-0.00080106	0.08336848	-0.00080106	-0.02684773	0.98331656	
460000000.0	-0.00125192	0.98293303	0.08907022	-0.00316952	0.08907022	-0.00316952	-0.00125192	0.98293303	
465000000.0	0.02476753	0.98179082	0.09505031	-0.00590209	0.09505031	-0.00590209	0.02476753	0.98179082	
470000000.0	0.05120264	0.97984472	0.10130922	-0.00903667	0.10130922	-0.00903667	0.05120264	0.97984472	
475000000.0	0.07804270	0.97704675	0.10784507	-0.01261404	0.10784507	-0.01261404	0.07804270	0.97704675	
480000000.0	0.10527388	0.97334613	0.11465326	-0.01667801	0.11465326	-0.01667801	0.10527388	0.97334613	
485000000.0	0.13287870	0.96868926	0.12172590	-0.02127543	0.12172590	-0.02127543	0.13287870	0.96868926	
490000000.0	0.16083553	0.96301967	0.12905133	-0.02645622	0.12905133	-0.02645622	0.16083553	0.96301967	
495000000.0	0.18911795	0.95627811	0.13661348	-0.03227334	0.13661348	-0.03227334	0.18911795	0.95627811	
500000000.0	0.21769413	0.94840267	0.14439121	-0.03878273	0.14439121	-0.03878273	0.21769413	0.94840267	
505000000.0	0.24652603	0.93932894	0.15235757	-0.04604307	0.15235757	-0.04604307	0.24652603	0.93932894	
510000000.0	0.27556868	0.92899036	0.16047899	-0.05411555	0.16047899	-0.05411555	0.27556868	0.92899036	
515000000.0	0.30476926	0.91731858	0.16871444	-0.06306345	0.16871444	-0.06306345	0.30476926	0.91731858	
520000000.0	0.33406627	0.90424407	0.17701450	-0.07295162	0.17701450	-0.07295162	0.33406627	0.90424407	
525000000.0	0.36338853	0.88969685	0.18532042	-0.08384576	0.18532042	-0.08384576	0.36338853	0.88969685	
530000000.0	0.39265427	0.87360737	0.19356317	-0.09581149	0.19356317	-0.09581149	0.39265427	0.87360737	
535000000.0	0.42177020	0.85590775	0.20166246	-0.10891325	0.20166246	-0.10891325	0.42177020	0.85590775	
540000000.0	0.45063058	0.83653310	0.20952586	-0.12321288	0.20952586	-0.12321288	0.45063058	0.83653310	
545000000.0	0.47911645	0.81542328	0.21704798	-0.13876796	0.21704798	-0.13876796	0.47911645	0.81542328	
550000000.0	0.50709500	0.79252485	0.22410981	-0.15562986	0.22410981	-0.15562986	0.50709500	0.79252485	
555000000.0	0.53441918	0.76779337	0.23057831	-0.17384143	0.23057831	-0.17384143	0.53441918	0.76779337	
560000000.0	0.56092753	0.74119600	0.23630626	-0.19343446	0.23630626	-0.19343446	0.56092753	0.74119600	
565000000.0	0.58644456	0.71271438	0.24113256	-0.21442680	0.24113256	-0.21442680	0.58644456	0.71271438	
570000000.0	0.61078151	0.68234772	0.24488300	-0.23681923	0.24488300	-0.23681923	0.61078151	0.68234772	
575000000.0	0.63373779	0.65011614	0.24737166	-0.26059225	0.24737166	-0.26059225	0.63373779	0.65011614	
580000000.0	0.65510308	0.61606394	0.24840301	-0.28570271	0.24840301	-0.28570271	0.65510308	0.61606394	
585000000.0	0.67466028	0.58026292	0.24777482	-0.31208056	0.24777482	-0.31208056	0.67466028	0.58026292	
590000000.0	0.69218929	0.54281531	0.24528185	-0.33962593	0.24528185	-0.33962593	0.69218929	0.54281531	
595000000.0	0.70747164	0.50385626	0.24072056	-0.36820661	0.24072056	-0.36820661	0.70747164	0.50385626	
600000000.0	0.72029599	0.46355566	0.23389450	-0.39765627	0.23389450	-0.39765627	0.72029599	0.46355566	
605000000.0	0.73046435	0.42211885	0.22462052	-0.42777375	0.22462052	-0.42777375	0.73046435	0.42211885	
610000000.0	0.73779886	0.37978618	0.21273554	-0.45832348	0.21273554	-0.45832348	0.73779886	0.37978618	
615000000.0	0.74214885	0.33683112	0.19810354	-0.48903741	0.19810354	-0.48903741	0.74214885	0.33683112	
620000000.0	0.74339779	0.29355670	0.18062253	-0.51961853	0.18062253	-0.51961853	0.74339779	0.29355670	
625000000.0	0.74146983	0.25029036	0.16023099	-0.54974604	0.16023099	-0.54974604	0.74146983	0.25029036	
630000000.0	0.73633538	0.20737713	0.13691346	-0.57908214	0.13691346	-0.57908214	0.73633538	0.20737713	
635000000.0	0.72801529	0.16517144	0.11070470	-0.60728025	0.11070470	-0.60728025	0.72801529	0.16517144	
640000000.0	0.71658332	0.12402783	0.08169209	-0.63399427	0.08169209	-0.63399427	0.71658332	0.12402783	
645000000.0	0.70216647	0.08429102	0.05001598	-0.65888847	0.05001598	-0.65888847	0.70216647	0.08429102	
650000000.0	0.68494315	0.04628594	0.01586776	-0.68164751	0.01586776	-0.68164751	0.68494315	0.04628594	
655000000.0	0.66513906	0.01030819	-0.02051425	-0.70198591	-0.02051425	-0.70198591	0.66513906	0.01030819	
660000000.0	0.64302100	-0.02338435	-0.05885099	-0.71965644	-0.05885099	-0.71965644	0.64302100	-0.02338435	
665000000.0	0.61888898	-0.05457833	-0.09883063	-0.73445693	-0.09883063	-0.73445693	0.61888898	-0.05457833	
670000000.0	0.59306710	-0.08310982	-0.14011769	-0.74623511	-0.14011769	-0.74623511	0.59306710	-0.08310982	
675000000.0	0.56589373	-0.10886695	-0.18236292	-0.75489125	-0.18236292	-0.75489125	0.56589373	-0.10886695	
680000000.0	0.53771154	-0.13179035	-0.22521323	-0.76037855	-0.22521323	-0.76037855	0.53771154	-0.13179035	
685000000.0	0.50885811	-0.15187142	-0.26832116	-0.76270140	-0.26832116	-0.76270140	0.50885811	-0.15187142	
690000000.0	0.47965735	-0.16914881	-0.31135344	-0.76191185	-0.31135344	-0.76191185	0.47965735	-0.16914881	
695000000.0	0.45041235	-0.18370336	-0.35399823	-0.75810448	-0.35399823	-0.75810448	0.45041235	-0.18370336	
700000000.0	0.42139965	-0.19565201	-0.39597076	-0.75141033	-0.39597076	-0.75141033	0.42139965	-0.19565201	
705000000.0	0.39286523	-0.20514110	-0.43701746	-0.74199014	-0.43701746	-0.74199014	0.39286523	-0.20514110	
710000000.0	0.36502205	-0.21233950	-0.47691835	-0.73002742	-0.47691835	-0.73002742	0.36502205	-0.21233950	
715000000.0	0.33804908	-0.21743182	-0.51548808	-0.71572169	-0.51548808	-0.71572169	0.33804908	-0.21743182	
720000000.0	0.31209165	-0.22061220	-0.55257558	-0.69928222	-0.55257558	-0.69928222	0.31209165	-0.22061220	
725000000.0	0.28726276	-0.22207866	-0.58806273	-0.68092231	-0.58806273	-0.68092231	0.28726276	-0.22207866	
730000000.0	0.26364530	-0.22202832	-0.62186217	-0.66085449	-0.62186217	-0.66085449	0.26364530	-0.22202832	
735000000.0	0.24129471	-0.22065334	-0.65391463	-0.63928647	-0.65391463	-0.63928647	0.24129471	-0.22065334	
740000000.0	0.22024207	-0.21813787	-0.68418586	-0.61641800	-0.68418586	-0.61641800	0.22024207	-0.21813787	
745000000.0	0.20049729	-0.21465562	-0.71266343	-0.59243844	-0.71266343	-0.59243844	0.20049729	-0.21465562	
750000000.0	0.18205229	-0.21036827	-0.73935353	-0.56752514	-0.73935353	-0.56752514	0.18205229	-0.21036827	
755000000.0	0.16488406	-0.20542447	-0.76427793	-0.54184237	-0.76427793	-0.54184237	0.16488406	-0.20542447	
760000000.0	0.14895756	-0.19995933	-0.78747106	-0.51554080	-0.78747106	-0.51554080	0.14895756	-0.19995933	
765000000.0	0.13422828	-0.19409437	-0.80897745	-0.48875747	-0.80897745	-0.48875747	0.13422828	-0.19409437	
770000000.0	0.12064461	-0.18793783	-0.82884935	-0.46161595	-0.82884935	-0.46161595	0.12064461	-0.18793783	
775000000.0	0.10814983	-0.18158515	-0.84714470	-0.43422692	-0.84714470	-0.43422692	0.10814983	-0.18158515	
780000000.0	0.09668388	-0.17511970	-0.86392542	-0.40668879	-0.86392542	-0.40668879	0.09668388	-0.17511970	
785000000.0	0.08618479	-0.16861359	-0.87925586	-0.37908850	-0.87925586	-0.37908850	0.08618479	-0.16861359	
790000000.0	0.07658992	-0.16212857	-0.89320163	-0.35150241	-0.89320163	-0.35150241	0.07658992	-0.16212857	
795000000.0	0.06783693	-0.15571692	-0.90582858	-0.32399715	-0.90582858	-0.32399715	0.06783693	-0.15571692	
800000000.0	0.05986456	-0.14942236	-0.91720200	-0.29663053	-0.91720200	-0.29663053	0.05986456	-0.14942236	
805000000.0	0.05261324	-0.14328098	-0.92738597	-0.26945239	-0.92738597	-0.26945239	0.05261324	-0.14328098	
810000000.0	0.04602557	-0.13732200	-0.93644293	-0.24250543	-0.93644293	-0.24250543	0.04602557	-0.13732200	
815000000.0	0.04004660	-0.13156864	-0.94443328	-0.21582598	-0.94443328	-0.21582598	0.04004660	-0.13156864	
820000000.0	0.03462411	-0.12603883	-0.95141516	-0.18944472	-0.95141516	-0.18944472	0.03462411	-0.12603883	
825000000.0	0.02970872	-0.12074586	-0.95744428	-0.16338732	-0.95744428	-0.16338732	0.02970872	-0.12074586	
830000000.0	0.02525397	-0.11569902	-0.96257381	-0.13767510	-0.96257381	-0.13767510	0.02525397	-0.11569902	
835000000.0	0.02121633	-0.11090417	-0.96685436	-0.11232550	-0.96685436	-0.11232550	0.02121633	-0.11090417	
840000000.0	0.01755516	-0.10636418	-0.97033400	-0.08735260	-0.97033400	-0.08735260	0.01755516	-0.10636418	
845000000.0	0.01423270	-0.10207945	-0.97305823	-0.06276755	-0.97305823	-0.06276755	0.01423270	-0.10207945	
850000000.0	0.01121390	-0.09804825	-0.97507014	-0.03857899	-0.97507014	-0.03857899	0.01121390	-0.09804825	
855000000.0	0.00846637	-0.09426707	-0.97641041	-0.01479333	-0.97641041	-0.01479333	0.00846637	-0.09426707	
860000000.0	0.00596027	-0.09073097	-0.97711746	0.00858492	-0.97711746	0.00858492	0.00596027	-0.09073097	
865000000.0	0.00366814	-0.08743380	-0.97722752	0.03155286	-0.97722752	0.03155286	0.00366814	-0.08743380	
870000000.0	0.00156479	-0.08436846	-0.97677474	0.05410901	-0.97677474	0.05410901	0.00156479	-0.08436846	
875000000.0	-0.00037282	-0.08152708	-0.97579132	0.07625308	-0.97579132	0.07625308	-0.00037282	-0.08152708	
880000000.0	-0.00216575	-0.07890124	-0.97430759	0.09798580	-0.97430759	0.09798580	-0.00216575	-0.07890124	
885000000.0	-0.00383315	-0.07648206	-0.97235217	0.11930878	-0.97235217	0.11930878	-0.00383315	-0.07648206	
890000000.0	-0.00539244	-0.07426039	-0.96995199	0.14022435	-0.96995199	0.14022435	-0.00539244	-0.07426039	
895000000.0	-0.00685943	-0.07222689	-0.96713248	0.16073549	-0.96713248	0.16073549	-0.00685943	-0.07222689	
900000000.0	-0.00824839	-0.07037212	-0.96391760	0.18084567	-0.96391760	0.18084567	-0.00824839	-0.07037212	
905000000.0	-0.00957220	-0.06868664	-0.96032999	0.20055881	-0.96032999	0.20055881	-0.00957220	-0.06868664	
910000000.0	-0.01084246	-0.06716105	-0.95639098	0.21987920	-0.95639098	0.21987920	-0.01084246	-0.06716105	
915000000.0	-0.01206956	-0.06578609	-0.95212075	0.23881141	-0.95212075	0.23881141	-0.01206956	-0.06578609	
920000000.0	-0.01326281	-0.06455263	-0.94753837	0.25736028	-0.94753837	0.25736028	-0.01326281	-0.06455263	
925000000.0	-0.01443048	-0.06345177	-0.94266186	0.27553081	-0.94266186	0.27553081	-0.01443048	-0.06345177	
930000000.0	-0.01557993	-0.06247480	-0.93750827	0.29332820	-0.93750827	0.29332820	-0.01557993	-0.06247480	
935000000.0	-0.01671766	-0.06161330	-0.93209376	0.31075774	-0.93209376	0.31075774	-0.01671766	-0.06161330	
940000000.0	-0.01784940	-0.06085909	-0.92643362	0.32782484	-0.92643362	0.32782484	-0.01784940	-0.06085909	
945000000.0	-0.01898014	-0.06020431	-0.92054236	0.34453494	-0.92054236	0.34453494	-0.01898014	-0.06020431	
950000000.0	-0.02011425	-0.05964135	-0.91443374	0.36089358	-0.91443374	0.36089358	-0.02011425	-0.05964135	
955000000.0	-0.02125548	-0.05916296	-0.90812081	0.37690629	-0.90812081	0.37690629	-0.02125548	-0.05916296	
960000000.0	-0.02240704	-0.05876214	-0.90161597	0.39257862	-0.90161597	0.39257862	-0.02240704	-0.05876214	
965000000.0	-0.02357166	-0.05843224	-0.89493100	0.40791614	-0.89493100	0.40791614	-0.02357166	-0.05843224	
970000000.0	-0.02475161	-0.05816689	-0.88807710	0.42292439	-0.88807710	0.42292439	-0.02475161	-0.05816689	
975000000.0	-0.02594876	-0.05796004	-0.88106493	0.43760891	-0.88106493	0.43760891	-0.02594876	-0.05796004	
980000000.0	-0.02716463	-0.05780595	-0.87390461	0.45197518	-0.87390461	0.45197518	-0.02716463	-0.05780595	
985000000.0	-0.02840037	-0.05769914	-0.86660581	0.46602869	-0.86660581	0.46602869	-0.02840037	-0.05769914	
990000000.0	-0.02965687	-0.05763445	-0.85917771	0.47977485	-0.85917771	0.47977485	-0.02965687	-0.05763445	
995000000.0	-0.03093473	-0.05760700	-0.85162907	0.49321906	-0.85162907	0.49321906	-0.03093473	-0.05760700	
1000000000.0	-0.03223432	-0.05761217	-0.84396823	0.50636665	-0.84396823	0.50636665	-0.03223432	-0.05761217	
1005000000.0	-0.03355581	-0.05764562	-0.83620314	0.51922289	-0.83620314	0.51922289	-0.03355581	-0.05764562	
1010000000.0	-0.03489915	-0.05770325	-0.82834140	0.53179303	-0.82834140	0.53179303	-0.03489915	-0.05770325	
1015000000.0	-0.03626414	-0.05778122	-0.82039024	0.54408224	-0.82039024	0.54408224	-0.03626414	-0.05778122	
1020000000.0	-0.03765043	-0.05787594	-0.81235656	0.55609563	-0.81235656	0.55609563	-0.03765043	-0.05787594	
1025000000.0	-0.03905753	-0.05798403	-0.80424694	0.56783825	-0.80424694	0.56783825	-0.03905753	-0.05798403	
1030000000.0	-0.04048486	-0.05810234	-0.79606769	0.57931510	-0.79606769	0.57931510	-0.04048486	-0.05810234	
1035000000.0	-0.04193171	-0.05822794	-0.78782478	0.59053111	-0.78782478	0.59053111	-0.04193171	-0.05822794	
1040000000.0	-0.04339731	-0.05835809	-0.77952396	0.60149114	-0.77952396	0.60149114	-0.04339731	-0.05835809	
1045000000.0	-0.04488079	-0.05849025	-0.77117068	0.61220000	-0.77117068	0.61220000	-0.04488079	-0.05849025	
1050000000.0	-0.04638126	-0.05862206	-0.76277016	0.62266243	-0.76277016	0.62266243	-0.04638126	-0.05862206	
1055000000.0	-0.04789774	-0.05875135	-0.75432739	0.63288310	-0.75432739	0.63288310	-0.04789774	-0.05875135	
1060000000.0	-0.04942923	-0.05887610	-0.74584711	0.64286662	-0.74584711	0.64286662	-0.04942923	-0.05887610	
1065000000.0	-0.05097468	-0.05899447	-0.73733386	0.65261752	-0.73733386	0.65261752	-0.05097468	-0.05899447	
1070000000.0	-0.05253305	-0.05910475	-0.72879197	0.66214029	-0.72879197	0.66214029	-0.05253305	-0.05910475	
1075000000.0	-0.05410323	-0.05920539	-0.72022557	0.67143933	-0.72022557	0.67143933	-0.05410323	-0.05920539	
1080000000.0	-0.05568414	-0.05929497	-0.71163861	0.68051899	-0.71163861	0.68051899	-0.05568414	-0.05929497	
1085000000.0	-0.05727469	-0.05937219	-0.70303484	0.68938354	-0.70303484	0.68938354	-0.05727469	-0.05937219	
1090000000.0	-0.05887376	-0.05943590	-0.69441784	0.69803721	-0.69441784	0.69803721	-0.05887376	-0.05943590	
1095000000.0	-0.06048027	-0.05948503	-0.68579103	0.70648413	-0.68579103	0.70648413	-0.06048027	-0.05948503	
1100000000.0	-0.06209312	-0.05951865	-0.67715768	0.71472838	-0.67715768	0.71472838	-0.06209312	-0.05951865	
1105000000.0	-0.06371124	-0.05953591	-0.66852089	0.72277399	-0.66852089	0.72277399	-0.06371124	-0.05953591	
1110000000.0	-0.06533355	-0.05953606	-0.65988360	0.73062490	-0.65988360	0.73062490	-0.06533355	-0.05953606	
1115000000.0	-0.06695901	-0.05951846	-0.65124865	0.73828500	-0.65124865	0.73828500	-0.06695901	-0.05951846	
1120000000.0	-0.06858660	-0.05948253	-0.64261871	0.74575812	-0.64261871	0.74575812	-0.06858660	-0.05948253	
1125000000.0	-0.07021530	-0.05942779	-0.63399633	0.75304801	-0.63399633	0.75304801	-0.07021530	-0.05942779	
1130000000.0	-0.07184413	-0.05935382	-0.62538393	0.76015837	-0.62538393	0.76015837	-0.07184413	-0.05935382	
1135000000.0	-0.07347214	-0.05926027	-0.61678383	0.76709282	-0.61678383	0.76709282	-0.07347214	-0.05926027	
1140000000.0	-0.07509838	-0.05914687	-0.60819822	0.77385495	-0.60819822	0.77385495	-0.07509838	-0.05914687	
1145000000.0	-0.07672195	-0.05901340	-0.59962917	0.78044826	-0.59962917	0.78044826	-0.07672195	-0.05901340	
1150000000.0	-0.07834197	-0.05885970	-0.59107867	0.78687619	-0.59107867	0.78687619	-0.07834197	-0.05885970	
1155000000.0	-0.07995759	-0.05868566	-0.58254859	0.79314213	-0.58254859	0.79314213	-0.07995759	-0.05868566	
1160000000.0	-0.08156798	-0.05849122	-0.57404070	0.79924941	-0.57404070	0.79924941	-0.08156798	-0.05849122	
1165000000.0	-0.08317237	-0.05827638	-0.56555669	0.80520129	-0.56555669	0.80520129	-0.08317237	-0.05827638	
1170000000.0	-0.08476997	-0.05804116	-0.55709815	0.81100097	-0.55709815	0.81100097	-0.08476997	-0.05804116	
1175000000.0	-0.08636007	-0.05778564	-0.54866659	0.81665161	-0.54866659	0.81665161	-0.08636007	-0.05778564	
1180000000.0	-0.08794195	-0.05750991	-0.54026344	0.82215630	-0.54026344	0.82215630	-0.08794195	-0.05750991	
1185000000.0	-0.08951494	-0.05721412	-0.53189004	0.82751806	-0.53189004	0.82751806	-0.08951494	-0.05721412	
1190000000.0	-0.09107839	-0.05689843	-0.52354766	0.83273987	-0.52354766	0.83273987	-0.09107839	-0.05689843	
1195000000.0	-0.09263170	-0.05656305	-0.51523751	0.83782466	-0.51523751	0.83782466	-0.09263170	-0.05656305	
1200000000.0	-0.09417427	-0.05620820	-0.50696070	0.84277528	-0.50696070	0.84277528	-0.09417427	-0.05620820	
1205000000.0	-0.09570554	-0.05583413	-0.49871830	0.84759454	-0.49871830	0.84759454	-0.09570554	-0.05583413	
1210000000.0	-0.09722499	-0.05544110	-0.49051130	0.85228520	-0.49051130	0.85228520	-0.09722499	-0.05544110	
1215000000.0	-0.09873211	-0.05502939	-0.48234064	0.85684997	-0.48234064	0.85684997	-0.09873211	-0.05502939	
1220000000.0	-0.10022642	-0.05459933	-0.47420719	0.86129149	-0.47420719	0.86129149	-0.10022642	-0.05459933	
1225000000.0	-0.10170747	-0.05415122	-0.46611178	0.86561236	-0.46611178	0.86561236	-0.10170747	-0.05415122	
1230000000.0	-0.10317485	-0.05368540	-0.45805517	0.86981512	-0.45805517	0.86981512	-0.10317485	-0.05368540	
1235000000.0	-0.10462814	-0.05320221	-0.45003807	0.87390228	-0.45003807	0.87390228	-0.10462814	-0.05320221	
