! Copyright - Freescale Semiconductor, Inc., 2014
! 07/17/2014
! Rev.0
! AFT05MS004NT1 S-Parameters
! VDD = 7.5V, IDQ = 400mA
# hz S ma R 50
! 
! freq  magS11  angS11  magS21  angS21  magS12  angS12  magS22  angS22  
!     
         100000000       0.810691842        -150.711452         23.6314656         77.5743334       0.0103565138        -9.81993803        0.621340622         -142.73481
         105000000       0.812655978        -151.739296           22.38322         76.0161202       0.0102908491        -11.2461978         0.62801058        -143.482037
         110000000       0.814821586        -152.677974         21.2405179         74.5167063       0.0102205561        -12.6130382        0.634779739        -144.169446
         115000000        0.81704468        -153.538831         20.1883275         73.0705061        0.010145929        -13.9266909        0.641573597         -144.80789
         120000000       0.819417914        -154.332831         19.2184834         71.6732028       0.0100677539        -15.1908668        0.648417651        -145.404972
         125000000       0.821828681        -155.067884         18.3201162         70.3211286      0.00998637035        -16.4097635        0.655255596        -145.968118
         130000000       0.824351982        -155.751934         17.4872794         69.0108424      0.00990226623        -17.5862917        0.662104756        -146.502177
         135000000       0.826883782         -156.39059          16.711702         67.7397456      0.00981568828        -18.7235269         0.66891181        -147.012247
         140000000       0.829499302        -156.989713         15.9891831         66.5051594      0.00972704492        -19.8236598         0.67569886        -147.501441
         145000000       0.832100987        -157.553332          15.313281         65.3052029      0.00963651535        -20.8890198        0.682415007        -147.973303
         150000000       0.834763962        -158.085846           14.68099         64.1377165      0.00954445394        -21.9212975        0.689086578        -148.429804
         155000000       0.837395751        -158.590178         14.0871892         63.0013116      0.00945099066        -22.9223113        0.695664666        -148.873436
         160000000       0.840071233        -159.069684         13.5297069         61.8941907      0.00935643811        -23.8933998        0.702179289        -149.305413
         165000000       0.842702025        -159.526497         13.0043981         60.8153079      0.00926088608        -24.8360404        0.708583156        -149.727511
         170000000       0.845362691        -159.963219         12.5096826         59.7631267      0.00916461589        -25.7513021        0.714909488        -150.140447
         175000000       0.847968223         -160.38141         12.0421516         58.7368433      0.00906768528        -26.6404319        0.721112305        -150.545498
         180000000       0.850592825        -160.783118         11.6006508         57.7351146      0.00897034932        -27.5042873        0.727227564        -150.943062
         185000000       0.853154325        -161.169482          11.182337           56.75731       0.0088726392        -28.3439643        0.733210333        -151.334066
         190000000       0.855726531        -161.542141         10.7863665         55.8022344       0.0087747877         -29.160145        0.739098881        -151.718702
         195000000       0.858229692        -161.901923         10.4103388         54.8693815       0.0086768039        -29.9538316        0.744849098        -152.097656
         200000000       0.860737183         -162.25016         10.0536388         53.9576741        0.008578901        -30.7255529        0.750501186        -152.470992
         205000000       0.863171349        -162.587446         9.71421748         53.0666962      0.00848107006        -31.4762557         0.75601167        -152.839221
         210000000       0.865605091        -162.914881         9.39163026         52.1954672      0.00838350633        -32.2063333         0.76142234        -153.202336
         215000000       0.867951313        -163.232885         9.08400771         51.3436229      0.00828609055        -32.9167234        0.766681979         -153.56072
         220000000       0.870293614        -163.542373         8.79114277         50.5102782      0.00818909799        -33.6076887        0.771841786        -153.914323
         225000000       0.872557744        -163.843644         8.51150062         49.6951289      0.00809249344        -34.2801328        0.776859064        -154.263454
         230000000       0.874815604        -164.137475          8.2448604         48.8973502      0.00799644012        -34.9342182        0.781777986         -154.60804
         235000000       0.876994396        -164.424062         7.98987836         48.1166704      0.00790089194         -35.570869        0.786556115        -154.948324
         240000000       0.879165434        -164.704078         7.74640704          47.352331      0.00780599946        -36.1901252        0.791238425        -155.284233
         245000000       0.881257228         -164.97764         7.51326215         46.6040831      0.00771170794        -36.7929428        0.795782662        -155.615958
         250000000       0.883340479        -165.245343         7.29035225         45.8712292      0.00761815611        -37.3792438        0.800234405        -155.943437
         255000000       0.885344891        -165.507239          7.0766274         45.1535353      0.00752528298        -37.9500215        0.804551535        -156.266822
         260000000       0.887340519        -165.763863          6.8720391         44.4503613      0.00743321587        -38.5050854         0.80878006        -156.586068
         265000000       0.889258173         -166.01522         6.67565168         43.7614815      0.00734188786        -39.0454845        0.812877953        -156.901295
         270000000       0.891167231        -166.261794         6.48744946         43.0863112      0.00725141698        -39.5709071         0.81689152        -157.212477
         275000000       0.892999527        -166.503553         6.30659457         42.4246282      0.00716173304        -40.0824508        0.820778803        -157.519708
         280000000       0.894823744        -166.740943         6.13309659         41.7759008      0.00707294428        -40.5796961        0.824586277        -157.822982
         285000000       0.896572686        -166.973902         5.96620208         41.1399066      0.00698497726         -41.063805        0.828272036        -158.122374
         290000000       0.898314313        -167.202844         5.80593984          40.516165      0.00689793233        -41.5342405        0.831882629        -158.417896
         295000000       0.899982332        -167.427686         5.65162974         39.9044499      0.00681173412        -41.9922279          0.8353762        -158.709606
         300000000       0.901643977        -167.648814          5.5033152         39.3043311      0.00672647547        -42.4371183         0.83879928        -158.997536
         305000000       0.903233838        -167.866128         5.36038011         38.7155759      0.00664208015        -42.8702041        0.842110063        -159.281727
         310000000       0.904818392        -168.079994          5.2228789         38.1378031      0.00655863386        -43.2907245        0.845354994        -159.562228
         315000000       0.906321799        -168.290295         5.09019583         37.5707683      0.00647598957        -43.7000354          0.8484837        -159.839067
         320000000       0.907821017        -168.497375         4.96245195         37.0141407      0.00639429798        -44.0972805        0.851551061        -160.112306
         325000000       0.909252258        -168.701117         4.83913708           36.46767      0.00631348375        -44.4838769        0.854515346         -160.38197
         330000000       0.910680503        -168.901846         4.72031935         35.9310683       0.0062336194        -44.8588586        0.857422708        -160.648132
         335000000       0.912042762        -169.099433         4.60553255         35.4040738      0.00615463133        -45.2237047        0.860231503        -160.910803
         340000000       0.913403234        -169.294192         4.49484901         34.8864436      0.00607658576        -45.5773506        0.862987641        -161.170072
         345000000       0.914699709        -169.485988         4.38784162         34.3779029      0.00599940927         -45.921356        0.865649569         -161.42594
         350000000       0.915995602        -169.675124          4.2845855         33.8782531      0.00592316415        -46.2545417        0.868262926        -161.678505
         355000000       0.917229475        -169.861457         4.18468848          33.387206       0.0058477786        -46.5785395        0.870786277        -161.927761
         360000000       0.918463947        -170.045281         4.08822737         32.9046058      0.00577331025        -46.8920659        0.873264953        -162.173816
         365000000       0.919638335         -170.22645         3.99484125         32.4301495      0.00569968888        -47.1968289         0.87565765        -162.416655
         370000000       0.920814468        -170.405249         3.90460776         31.9637234      0.00562696814        -47.4914384        0.878009371        -162.656396
         375000000       0.921932421        -170.581527          3.8171941         31.5050093       0.0055550799        -47.7776705        0.880278963        -162.893016
         380000000       0.923053223        -170.755563         3.73267804         31.0539342      0.00548407386        -48.0540378        0.882511077        -163.126639
         385000000       0.924117691        -170.927202         3.65075215          30.610164      0.00541388307        -48.3224044        0.884664726        -163.357235
         390000000       0.925186062        -171.096717         3.57149373         30.1736655      0.00534455464         -48.581168        0.886784197        -163.584937
         395000000       0.926199891        -171.263949         3.49461827         29.7440883      0.00527602451        -48.8322536        0.888828694        -163.809706
         400000000        0.92721862        -171.429166         3.42020223         29.3214377      0.00520833585        -49.0739713        0.890842118        -164.031681
         405000000       0.928184543        -171.592208         3.34798185         28.9053468      0.00514142619        -49.3083291        0.892783867        -164.250817
         410000000       0.929156304        -171.753336         3.27803241         28.4958583      0.00507533641        -49.5335295        0.894697457        -164.467258
         415000000       0.930065548        -171.912388         3.21007436         28.0925854      0.00500995238        -49.7516528        0.896533562        -164.680951
         420000000       0.930981498        -172.069616         3.14421748         27.6956099      0.00494536682        -49.9608143        0.898344218        -164.892042
         425000000       0.931847885        -172.224865         3.08023415          27.304532      0.00488152303        -50.1631514        0.900089241        -165.100481
         430000000         0.9327218        -172.378377         3.01819634         26.9194647      0.00481845544        -50.3566901        0.901811372        -165.306413
         435000000       0.933547711        -172.529999          2.9578921         26.5399917       0.0047561095         -50.543635         0.90347067        -165.509782
         440000000       0.934381913        -172.679968          2.8993916         26.1662598      0.00469451747        -50.7219226        0.905109463        -165.710736
         445000000       0.935169596        -172.828128         2.84249728         25.7978358       0.0046336265        -50.8938428        0.906688081        -165.909216
         450000000       0.935966274        -172.974712         2.78727739         25.4348994      0.00457346728        -51.0572253         0.90824842        -166.105371
         455000000       0.936717867        -173.119566         2.73354744         25.0770003      0.00451398962        -51.2144223        0.909751081        -166.299136
         460000000       0.937479101        -173.262916         2.68137377           24.72435      0.00445522183        -51.3631801        0.911237539        -166.490663
         465000000       0.938196628        -173.404609         2.63058396         24.3764818      0.00439711536        -51.5059276        0.912668677        -166.679884
         470000000        0.93892439        -173.544868         2.58124234         24.0336376      0.00433969727         -51.640314        0.914085544        -166.866952
         475000000       0.939609756        -173.683539         2.53318754         23.6953341      0.00428292091        -51.7688399        0.915449328        -167.051793
         480000000       0.940305898        -173.820841         2.48648187         23.3618428       0.0042268119        -51.8890628        0.916800636        -167.234563
         485000000       0.940960909        -173.956619         2.44097416         23.0326644      0.00417132578        -52.0035475        0.918100968        -167.415186
         490000000       0.941627186        -174.091089         2.39672467         22.7080986      0.00411648651        -52.1097671        0.919390494        -167.593815
         495000000       0.942253545        -174.224099         2.35359165         22.3876299      0.00406225068        -52.2103717        0.920631025        -167.770373
         500000000       0.942891615        -174.355859         2.31163336         22.0715854      0.00400864181        -52.3027298        0.921862301        -167.945014
         505000000       0.943490928        -174.486216         2.27071671         21.7594345      0.00395561881        -52.3895457        0.923046469        -168.117656
         510000000       0.944102351        -174.615378         2.23089796         21.4515302       0.0039032035        -52.4681138        0.924222823        -168.288454
         515000000       0.944664664        -174.743192         2.19202862         21.1473221       0.0038513155        -52.5412146        0.925344703        -168.457323
         520000000       0.945239436        -174.869859         2.15418713         20.8471929      0.00380001702        -52.6060556        0.926460096        -168.624415
         525000000       0.945777614        -174.995235         2.11725599         20.5505824      0.00374927102        -52.6654694        0.927531787        -168.789649
         530000000       0.946328568        -175.119513         2.08128736         20.2578924      0.00369909663        -52.7165825        0.928598228        -168.953173
         535000000       0.946843947         -175.24255         2.04617067         19.9685483      0.00364945815        -52.7622923        0.929622563        -169.114906
         540000000       0.947372382        -175.364534         2.01195619         19.6829753       0.0036003741        -52.7996407        0.930642795        -169.274995
         545000000       0.947866233        -175.485326         1.97853972         19.4005844      0.00355181039        -52.8315938        0.931622419        -169.433354
         550000000       0.948373384        -175.605111         1.94596971         19.1218232      0.00350378464        -52.8551042        0.932599002        -169.590132
         555000000       0.948846902        -175.723748         1.91414793         18.8460893      0.00345626429        -52.8731952        0.933536403        -169.745242
         560000000       0.949333932        -175.841419         1.88312101         18.5738512      0.00340926621        -52.8827409        0.934471745         -169.89883
         565000000       0.949788231        -175.957986         1.85279626         18.3044933      0.00336275827        -52.8868467        0.935369255        -170.050808
         570000000       0.950256223        -176.073627         1.82321858         18.0385049      0.00331675765        -52.8822837        0.936265616        -170.201322
         575000000       0.950692374        -176.188206         1.79430046         17.7752572      0.00327123386         -52.872205         0.93712542        -170.350282
         580000000       0.951142369        -176.301896         1.76608508         17.5152591       0.0032262032         -52.853311        0.937984913        -170.497833
         585000000       0.951561351        -176.414562         1.73848973         17.2578696      0.00318163576        -52.8288261        0.938809061        -170.643884
         590000000       0.951994304        -176.526377         1.71155598         17.0036161      0.00313754802        -52.7953562        0.939633674        -170.788578
         595000000       0.952397071        -176.637205         1.68520564         16.7518459        0.003093911        -52.7561905        0.940424097        -170.931825
         600000000       0.952813908        -176.747216         1.65947867         16.5031042      0.00305074103        -52.7078459        0.941215701        -171.073766
         605000000       0.953201333        -176.856276         1.63430105         16.2567265      0.00300801059        -52.6536626        0.941974204        -171.214308
         610000000       0.953602908        -176.964551         1.60971124         16.0132751      0.00296573534        -52.5900808        0.942734547        -171.353594
         615000000       0.953964325        -177.071909         1.58562236         15.7720685      0.00292385653        -52.5205246        0.943453586        -171.491527
         620000000       0.954339943        -177.178508         1.56208861         15.5336912      0.00288242212        -52.4413314        0.944175068        -171.628247
         625000000       0.954687619        -177.284226         1.53904371         15.2974583      0.00284140695        -52.3559487        0.944865456        -171.763664
         630000000       0.955049532        -177.389216         1.51652306         15.0639627      0.00280082587         -52.260654        0.945558846        -171.897911
         635000000       0.955384206        -177.493355         1.49446384         14.8325096      0.00276065337        -52.1589665         0.94622209          -172.0309
         640000000       0.955733135        -177.596795         1.47290006         14.6037062      0.00272090544        -52.0470622        0.946888851        -172.162763
         645000000         0.9560555        -177.699413         1.45177216         14.3768483      0.00268155746         -51.928515        0.947526367        -172.293409
         650000000       0.956392123        -177.801358         1.43111281         14.1525571      0.00264262534        -51.7994142        0.948167871         -172.42297
         655000000       0.956702846         -177.90251          1.4108655         13.9301192      0.00260408467        -51.6633931        0.948780983        -172.551355
         660000000       0.957027812        -178.003015         1.39106162          13.710169        0.002565952        -51.5164475        0.949398516        -172.678693
         665000000       0.957327507        -178.102753         1.37164751         13.4919843      0.00252820338        -51.3622611        0.949988481        -172.804894
         670000000       0.957641415        -178.201869         1.35265335          13.276212      0.00249085571        -51.1967431        0.950583264        -172.930087
         675000000        0.95793067        -178.300245         1.33402817         13.0621218       0.0024538849        -51.0236543        0.951151266         -173.05418
