! https://github.com/szoftveres 
# Hz S RI R 50
100000000.0	0.18383373	0.13393723	-0.68765604	-0.68948905	-0.68765604	-0.68948905	-0.13344738	-0.18418962	
110000000.0	0.13549569	0.04817330	-0.86154718	-0.48688470	-0.86154718	-0.48688470	-0.11116717	-0.09122286	
120000000.0	0.06423600	0.00345506	-0.96879454	-0.23937198	-0.96879454	-0.23937198	-0.05845323	-0.02685928	
130000000.0	-0.00658113	0.00155129	-0.99960484	0.02728443	-0.99960484	0.02728443	0.00665595	0.00118998	
140000000.0	-0.05792705	0.03260157	-0.95534821	0.28790865	-0.95534821	0.28790865	0.06629504	-0.00483464	
150000000.0	-0.07972195	0.08033608	-0.84516352	0.52238794	-0.84516352	0.52238794	0.10750460	-0.03538696	
160000000.0	-0.07135263	0.12785726	-0.68174131	0.71679154	-0.68174131	0.71679154	0.12412249	-0.07766778	
170000000.0	-0.03950867	0.16177035	-0.47840915	0.86220305	-0.47840915	0.86220305	0.11635458	-0.11913099	
180000000.0	0.00489706	0.17424517	-0.24804653	0.95293628	-0.24804653	0.95293628	0.08923050	-0.14974404	
190000000.0	0.04970348	0.16351543	-0.00330860	0.98528236	-0.00330860	0.98528236	0.05080052	-0.16317794	
200000000.0	0.08405813	0.13335230	0.24266028	0.95721857	0.24266028	0.95721857	0.01037806	-0.15729240	
210000000.0	0.10048894	0.09176125	0.47574574	0.86899243	0.47574574	0.86899243	-0.02316072	-0.13409598	
220000000.0	0.09632489	0.04898557	0.68110223	0.72416965	0.68110223	0.72416965	-0.04299503	-0.09914383	
230000000.0	0.07413936	0.01501076	0.84427131	0.53055064	0.84427131	0.53055064	-0.04568596	-0.06028897	
240000000.0	0.04093249	-0.00293770	0.95294002	0.30036847	0.95294002	0.30036847	-0.03184950	-0.02587873	
250000000.0	0.00611547	-0.00218547	0.99875529	0.04945396	0.99875529	0.04945396	-0.00586965	-0.00277893	
260000000.0	-0.02114891	0.01492067	0.97852815	-0.20448169	0.97852815	-0.20448169	0.02535413	0.00520299	
270000000.0	-0.03438816	0.04200589	0.89443360	-0.44389356	0.89443360	-0.44389356	0.05425038	-0.00198405	
280000000.0	-0.03129121	0.07070321	0.75328089	-0.65313844	0.75328089	-0.65313844	0.07442353	-0.02095763	
290000000.0	-0.01389394	0.09299436	0.56529218	-0.81951434	0.56529218	-0.81951434	0.08199566	-0.04601853	
300000000.0	0.01236197	0.10316648	0.34289295	-0.93361035	0.34289295	-0.93361035	0.07619725	-0.07064078	
310000000.0	0.04026550	0.09897363	0.09982175	-0.98925150	0.09982175	-0.98925150	0.05922660	-0.08893425	
320000000.0	0.06269384	0.08188346	-0.14941388	-0.98338196	-0.14941388	-0.98338196	0.03554345	-0.09680951	
330000000.0	0.07429250	0.05648128	-0.38991965	-0.91610761	-0.38991965	-0.91610761	0.01079785	-0.09269798	
340000000.0	0.07266805	0.02921255	-0.60688977	-0.79091769	-0.60688977	-0.79091769	-0.00940895	-0.07775275	
350000000.0	0.05886180	0.00673227	-0.78636043	-0.61492051	-0.78636043	-0.61492051	-0.02072420	-0.05550263	
360000000.0	0.03698254	-0.00577625	-0.91625889	-0.39883401	-0.91625889	-0.39883401	-0.02097291	-0.03100340	
370000000.0	0.01305816	-0.00589453	-0.98757253	-0.15650953	-0.98757253	-0.15650953	-0.01059576	-0.00964318	
380000000.0	-0.00660741	0.00548814	-0.99533750	0.09607020	-0.99533750	0.09607020	0.00753509	0.00412310	
390000000.0	-0.01710910	0.02454202	-0.93916269	0.34216722	-0.93916269	0.34216722	0.02888662	0.00778430	
400000000.0	-0.01616456	0.04564707	-0.82316029	0.56574039	-0.82316029	0.56574039	0.04840806	0.00126769	
410000000.0	-0.00456419	0.06295603	-0.65536287	0.75267205	-0.65536287	0.75267205	0.06172965	-0.01318121	
420000000.0	0.01421326	0.07190865	-0.44685332	0.89159926	-0.44685332	0.89159926	0.06611481	-0.03164968	
430000000.0	0.03503794	0.07030769	-0.21085133	0.97435665	-0.21085133	0.97435665	0.06097116	-0.04953127	
440000000.0	0.05249877	0.05873729	0.03809484	0.99616394	0.03809484	0.99616394	0.04785960	-0.06257515	
450000000.0	0.06225754	0.04028573	0.28479870	0.95571479	0.28479870	0.95571479	0.03005053	-0.06779312	
460000000.0	0.06208339	0.01968187	0.51409655	0.85525611	0.51409655	0.85525611	0.01174556	-0.06406064	
470000000.0	0.05234660	0.00206179	0.71159194	0.70063720	0.71159194	0.70063720	-0.00287361	-0.05230832	
480000000.0	0.03586144	-0.00834325	0.86453867	0.50121576	0.86453867	0.50121576	-0.01057854	-0.03526680	
490000000.0	0.01711042	-0.00927614	0.96280923	0.26948020	0.96280923	0.26948020	-0.00980901	-0.01681061	
500000000.0	0.00104082	-0.00099939	0.99979282	0.02030365	0.99979282	0.02030365	-0.00099939	-0.00104082	
510000000.0	-0.00824556	0.01383586	0.97302472	-0.23013793	0.97302472	-0.23013793	0.01357004	0.00867608	
520000000.0	-0.00854653	0.03095741	0.88439658	-0.46562998	0.88439658	-0.46562998	0.03035968	0.01047350	
530000000.0	-0.00007159	0.04564739	0.73991365	-0.67115132	0.73991365	-0.67115132	0.04543807	0.00436707	
540000000.0	0.01470439	0.05398600	0.54909041	-0.83388789	0.54909041	-0.83388789	0.05540326	-0.00782220	
550000000.0	0.03176784	0.05382878	0.32414750	-0.94393944	0.32414750	-0.94393944	0.05813564	-0.02295605	
560000000.0	0.04664868	0.04528496	0.07916383	-0.99473929	0.07916383	-0.99473929	0.05322393	-0.03733685	
570000000.0	0.05556781	0.03061130	-0.17073214	-0.98327295	-0.17073214	-0.98327295	0.04199582	-0.04755191	
580000000.0	0.05637122	0.01357873	-0.41013219	-0.91018102	-0.41013219	-0.91018102	0.02717108	-0.05122332	
590000000.0	0.04903719	-0.00151847	-0.62413100	-0.77977788	-0.62413100	-0.77977788	0.01222276	-0.04751375	
600000000.0	0.03564268	-0.01096783	-0.79917003	-0.59994714	-0.79917003	-0.59994714	0.00058317	-0.03728745	
610000000.0	0.01979707	-0.01258614	-0.92393536	-0.38182864	-0.92393536	-0.38182864	-0.00513604	-0.02289008	
620000000.0	0.00568250	-0.00626627	-0.99022542	-0.13921944	-0.99022542	-0.13921944	-0.00373436	-0.00759022	
630000000.0	-0.00305040	0.00602559	-0.99364845	0.11232608	-0.99364845	0.11232608	0.00431855	0.00519257	
640000000.0	-0.00423343	0.02080366	-0.93400832	0.35661990	-0.93400832	0.35661990	0.01702121	0.01268829	
650000000.0	0.00228061	0.03401153	-0.81529849	0.57803666	-0.81529849	0.57803666	0.03133987	0.01340887	
660000000.0	0.01462910	0.04209837	-0.64531917	0.76261189	-0.64531917	0.76261189	0.04393870	0.00746147	
670000000.0	0.02947779	0.04292889	-0.43501634	0.89891543	-0.43501634	0.89891543	0.05195611	-0.00352019	
680000000.0	0.04292123	0.03629611	-0.19767545	0.97865458	-0.19767545	0.97865458	0.05364416	-0.01679116	
690000000.0	0.05149851	0.02392554	0.05192139	0.99703543	0.05192139	0.99703543	0.04873481	-0.02914527	
700000000.0	0.05306754	0.00899194	0.29832386	0.95294588	0.29832386	0.95294588	0.03846695	-0.03764721	
710000000.0	0.04732888	-0.00471698	0.52623384	0.84900864	0.52623384	0.84900864	0.02528106	-0.04028822	
720000000.0	0.03587834	-0.01377958	0.72134756	0.69150601	0.72134756	0.69150601	0.01225236	-0.03642817	
730000000.0	0.02177696	-0.01601963	0.87122955	0.49013081	0.87122955	0.49013081	0.00238487	-0.02692911	
740000000.0	0.00874406	-0.01106264	0.96617533	0.25750026	0.96617533	0.25750026	-0.00207860	-0.01394704	
750000000.0	0.00017833	-0.00042050	0.99996464	0.00839730	0.99996464	0.00839730	-0.00017124	-0.00042344	
760000000.0	-0.00173344	0.01292341	0.97038020	-0.24123068	0.97038020	-0.24123068	0.00758306	0.01060738	
770000000.0	0.00342144	0.02531765	0.87939164	-0.47541314	0.87939164	-0.47541314	0.01930933	0.01672841	
780000000.0	0.01419903	0.03341312	0.73297068	-0.67929075	0.73297068	-0.67929075	0.03223886	0.01669445	
790000000.0	0.02770845	0.03503498	0.54058478	-0.84010290	0.54058478	-0.84010290	0.04336716	0.01070036	
800000000.0	0.04039073	0.02972738	0.31447254	-0.94794087	0.31447254	-0.94794087	0.05015010	0.00030888	
810000000.0	0.04895116	0.01884094	0.06881442	-0.99624966	0.06881442	-0.99624966	0.05107673	-0.01193166	
820000000.0	0.05120358	0.00515680	-0.18112048	-0.98211352	-0.18112048	-0.98211352	0.04599577	-0.02308222	
830000000.0	0.04661857	-0.00784562	-0.41982193	-0.90637448	-0.41982193	-0.90637448	0.03613282	-0.03048384	
840000000.0	0.03644577	-0.01689003	-0.63238884	-0.77360894	-0.63238884	-0.77360894	0.02380084	-0.03235873	
850000000.0	0.02338224	-0.01974904	-0.80539589	-0.59194654	-0.80539589	-0.59194654	0.01186785	-0.02821184	
860000000.0	0.01086765	-0.01582109	-0.92775946	-0.37268481	-0.92775946	-0.37268481	0.00309705	-0.01894257	
870000000.0	0.00218276	-0.00628574	-0.99153671	-0.12965598	-0.99153671	-0.12965598	-0.00049313	-0.00663564	
880000000.0	-0.00041380	0.00621012	-0.99255280	0.12165610	-0.99255280	0.12165610	0.00190136	0.00592636	
890000000.0	0.00372198	0.01825665	-0.93074792	0.36518647	-0.93074792	0.36518647	0.00968616	0.01591656	
900000000.0	0.01345971	0.02658621	-0.81017714	0.58542720	-0.81017714	0.58542720	0.02101653	0.02112571	
910000000.0	0.02620790	0.02893242	-0.63866622	0.76849302	-0.63866622	0.76849302	0.03323917	0.02047185	
920000000.0	0.03860840	0.02461336	-0.42719412	0.90299987	-0.42719412	0.90299987	0.04351654	0.01423857	
930000000.0	0.04741954	0.01469186	-0.18910870	0.98070048	-0.18910870	0.98070048	0.04948245	0.00399378	
940000000.0	0.05035508	0.00168282	0.06072630	0.99688206	0.06072630	0.99688206	0.04977848	-0.00778258	
950000000.0	0.04666780	-0.01110700	0.30679393	0.95056627	0.30679393	0.95056627	0.04435572	-0.01827071	
960000000.0	0.03733630	-0.02043610	0.53378238	0.84455002	0.53378238	0.84455002	0.03448057	-0.02495444	
970000000.0	0.02481101	-0.02396731	0.72744816	0.68529494	0.72744816	0.68529494	0.02244537	-0.02619586	
980000000.0	0.01238036	-0.02087821	0.87548395	0.48263722	0.87548395	0.48263722	0.01104498	-0.02161438	
990000000.0	0.00331364	-0.01208305	0.96835200	0.24927379	0.96835200	0.24927379	0.00293247	-0.01218117	
1000000000.0	-0.00000000	-0.00000000	1.00000000	0.00000000	1.00000000	0.00000000	0.00000000	-0.00000000	
1010000000.0	0.00331364	0.01208305	0.96835200	-0.24927379	0.96835200	-0.24927379	0.00293247	0.01218117	
1020000000.0	0.01238036	0.02087821	0.87548395	-0.48263722	0.87548395	-0.48263722	0.01104498	0.02161438	
1030000000.0	0.02481101	0.02396731	0.72744816	-0.68529494	0.72744816	-0.68529494	0.02244537	0.02619586	
1040000000.0	0.03733630	0.02043610	0.53378238	-0.84455002	0.53378238	-0.84455002	0.03448057	0.02495444	
1050000000.0	0.04666780	0.01110700	0.30679393	-0.95056627	0.30679393	-0.95056627	0.04435572	0.01827071	
1060000000.0	0.05035508	-0.00168282	0.06072630	-0.99688206	0.06072630	-0.99688206	0.04977848	0.00778258	
1070000000.0	0.04741954	-0.01469186	-0.18910870	-0.98070048	-0.18910870	-0.98070048	0.04948245	-0.00399378	
1080000000.0	0.03860840	-0.02461336	-0.42719412	-0.90299987	-0.42719412	-0.90299987	0.04351654	-0.01423857	
1090000000.0	0.02620790	-0.02893242	-0.63866622	-0.76849302	-0.63866622	-0.76849302	0.03323917	-0.02047185	
1100000000.0	0.01345971	-0.02658621	-0.81017714	-0.58542720	-0.81017714	-0.58542720	0.02101653	-0.02112571	
1110000000.0	0.00372198	-0.01825665	-0.93074792	-0.36518647	-0.93074792	-0.36518647	0.00968616	-0.01591656	
1120000000.0	-0.00041380	-0.00621012	-0.99255280	-0.12165610	-0.99255280	-0.12165610	0.00190136	-0.00592636	
1130000000.0	0.00218276	0.00628574	-0.99153671	0.12965598	-0.99153671	0.12965598	-0.00049313	0.00663564	
1140000000.0	0.01086765	0.01582109	-0.92775946	0.37268481	-0.92775946	0.37268481	0.00309705	0.01894257	
1150000000.0	0.02338224	0.01974904	-0.80539589	0.59194654	-0.80539589	0.59194654	0.01186785	0.02821184	
1160000000.0	0.03644577	0.01689003	-0.63238884	0.77360894	-0.63238884	0.77360894	0.02380084	0.03235873	
1170000000.0	0.04661857	0.00784562	-0.41982193	0.90637448	-0.41982193	0.90637448	0.03613282	0.03048384	
1180000000.0	0.05120358	-0.00515680	-0.18112048	0.98211352	-0.18112048	0.98211352	0.04599577	0.02308222	
1190000000.0	0.04895116	-0.01884094	0.06881442	0.99624966	0.06881442	0.99624966	0.05107673	0.01193166	
1200000000.0	0.04039073	-0.02972738	0.31447254	0.94794087	0.31447254	0.94794087	0.05015010	-0.00030888	
1210000000.0	0.02770845	-0.03503498	0.54058478	0.84010290	0.54058478	0.84010290	0.04336716	-0.01070036	
1220000000.0	0.01419903	-0.03341312	0.73297068	0.67929075	0.73297068	0.67929075	0.03223886	-0.01669445	
1230000000.0	0.00342144	-0.02531765	0.87939164	0.47541314	0.87939164	0.47541314	0.01930933	-0.01672841	
1240000000.0	-0.00173344	-0.01292341	0.97038020	0.24123068	0.97038020	0.24123068	0.00758306	-0.01060738	
1250000000.0	0.00017833	0.00042050	0.99996464	-0.00839730	0.99996464	-0.00839730	-0.00017124	0.00042344	
1260000000.0	0.00874406	0.01106264	0.96617533	-0.25750026	0.96617533	-0.25750026	-0.00207860	0.01394704	
1270000000.0	0.02177696	0.01601963	0.87122955	-0.49013081	0.87122955	-0.49013081	0.00238487	0.02692911	
1280000000.0	0.03587834	0.01377958	0.72134756	-0.69150601	0.72134756	-0.69150601	0.01225236	0.03642817	
1290000000.0	0.04732888	0.00471698	0.52623384	-0.84900864	0.52623384	-0.84900864	0.02528106	0.04028822	
1300000000.0	0.05306754	-0.00899194	0.29832386	-0.95294588	0.29832386	-0.95294588	0.03846695	0.03764721	
1310000000.0	0.05149851	-0.02392554	0.05192139	-0.99703543	0.05192139	-0.99703543	0.04873481	0.02914527	
1320000000.0	0.04292123	-0.03629611	-0.19767545	-0.97865458	-0.19767545	-0.97865458	0.05364416	0.01679116	
1330000000.0	0.02947779	-0.04292889	-0.43501634	-0.89891543	-0.43501634	-0.89891543	0.05195611	0.00352019	
1340000000.0	0.01462910	-0.04209837	-0.64531917	-0.76261189	-0.64531917	-0.76261189	0.04393870	-0.00746147	
1350000000.0	0.00228061	-0.03401153	-0.81529849	-0.57803666	-0.81529849	-0.57803666	0.03133987	-0.01340887	
1360000000.0	-0.00423343	-0.02080366	-0.93400832	-0.35661990	-0.93400832	-0.35661990	0.01702121	-0.01268829	
1370000000.0	-0.00305040	-0.00602559	-0.99364845	-0.11232608	-0.99364845	-0.11232608	0.00431855	-0.00519257	
1380000000.0	0.00568250	0.00626627	-0.99022542	0.13921944	-0.99022542	0.13921944	-0.00373436	0.00759022	
1390000000.0	0.01979707	0.01258614	-0.92393536	0.38182864	-0.92393536	0.38182864	-0.00513604	0.02289008	
1400000000.0	0.03564268	0.01096783	-0.79917003	0.59994714	-0.79917003	0.59994714	0.00058317	0.03728745	
1410000000.0	0.04903719	0.00151847	-0.62413100	0.77977788	-0.62413100	0.77977788	0.01222276	0.04751375	
1420000000.0	0.05637122	-0.01357873	-0.41013219	0.91018102	-0.41013219	0.91018102	0.02717108	0.05122332	
1430000000.0	0.05556781	-0.03061130	-0.17073214	0.98327295	-0.17073214	0.98327295	0.04199582	0.04755191	
1440000000.0	0.04664868	-0.04528496	0.07916383	0.99473929	0.07916383	0.99473929	0.05322393	0.03733685	
1450000000.0	0.03176784	-0.05382878	0.32414750	0.94393944	0.32414750	0.94393944	0.05813564	0.02295605	
1460000000.0	0.01470439	-0.05398600	0.54909041	0.83388789	0.54909041	0.83388789	0.05540326	0.00782220	
1470000000.0	-0.00007159	-0.04564739	0.73991365	0.67115132	0.73991365	0.67115132	0.04543807	-0.00436707	
1480000000.0	-0.00854653	-0.03095741	0.88439658	0.46562998	0.88439658	0.46562998	0.03035968	-0.01047350	
1490000000.0	-0.00824556	-0.01383586	0.97302472	0.23013793	0.97302472	0.23013793	0.01357004	-0.00867608	
1500000000.0	0.00104082	0.00099939	0.99979282	-0.02030365	0.99979282	-0.02030365	-0.00099939	0.00104082	
1510000000.0	0.01711042	0.00927614	0.96280923	-0.26948020	0.96280923	-0.26948020	-0.00980901	0.01681061	
1520000000.0	0.03586144	0.00834325	0.86453867	-0.50121576	0.86453867	-0.50121576	-0.01057854	0.03526680	
1530000000.0	0.05234660	-0.00206179	0.71159194	-0.70063720	0.71159194	-0.70063720	-0.00287361	0.05230832	
1540000000.0	0.06208339	-0.01968187	0.51409655	-0.85525611	0.51409655	-0.85525611	0.01174556	0.06406064	
1550000000.0	0.06225754	-0.04028573	0.28479870	-0.95571479	0.28479870	-0.95571479	0.03005053	0.06779312	
1560000000.0	0.05249877	-0.05873729	0.03809484	-0.99616394	0.03809484	-0.99616394	0.04785960	0.06257515	
1570000000.0	0.03503794	-0.07030769	-0.21085133	-0.97435665	-0.21085133	-0.97435665	0.06097116	0.04953127	
1580000000.0	0.01421326	-0.07190865	-0.44685332	-0.89159926	-0.44685332	-0.89159926	0.06611481	0.03164968	
1590000000.0	-0.00456419	-0.06295603	-0.65536287	-0.75267205	-0.65536287	-0.75267205	0.06172965	0.01318121	
1600000000.0	-0.01616456	-0.04564707	-0.82316029	-0.56574039	-0.82316029	-0.56574039	0.04840806	-0.00126769	
1610000000.0	-0.01710910	-0.02454202	-0.93916269	-0.34216722	-0.93916269	-0.34216722	0.02888662	-0.00778430	
1620000000.0	-0.00660741	-0.00548814	-0.99533750	-0.09607020	-0.99533750	-0.09607020	0.00753509	-0.00412310	
1630000000.0	0.01305816	0.00589453	-0.98757253	0.15650953	-0.98757253	0.15650953	-0.01059576	0.00964318	
1640000000.0	0.03698254	0.00577625	-0.91625889	0.39883401	-0.91625889	0.39883401	-0.02097291	0.03100340	
1650000000.0	0.05886180	-0.00673227	-0.78636043	0.61492051	-0.78636043	0.61492051	-0.02072420	0.05550263	
1660000000.0	0.07266805	-0.02921255	-0.60688977	0.79091769	-0.60688977	0.79091769	-0.00940895	0.07775275	
1670000000.0	0.07429250	-0.05648128	-0.38991965	0.91610761	-0.38991965	0.91610761	0.01079785	0.09269798	
1680000000.0	0.06269384	-0.08188346	-0.14941388	0.98338196	-0.14941388	0.98338196	0.03554345	0.09680951	
1690000000.0	0.04026550	-0.09897363	0.09982175	0.98925150	0.09982175	0.98925150	0.05922660	0.08893425	
1700000000.0	0.01236197	-0.10316648	0.34289295	0.93361035	0.34289295	0.93361035	0.07619725	0.07064078	
1710000000.0	-0.01389394	-0.09299436	0.56529218	0.81951434	0.56529218	0.81951434	0.08199566	0.04601853	
1720000000.0	-0.03129121	-0.07070321	0.75328089	0.65313844	0.75328089	0.65313844	0.07442353	0.02095763	
1730000000.0	-0.03438816	-0.04200589	0.89443360	0.44389356	0.89443360	0.44389356	0.05425038	0.00198405	
1740000000.0	-0.02114891	-0.01492067	0.97852815	0.20448169	0.97852815	0.20448169	0.02535413	-0.00520299	
1750000000.0	0.00611547	0.00218547	0.99875529	-0.04945396	0.99875529	-0.04945396	-0.00586965	0.00277893	
1760000000.0	0.04093249	0.00293770	0.95294002	-0.30036847	0.95294002	-0.30036847	-0.03184950	0.02587873	
1770000000.0	0.07413936	-0.01501076	0.84427131	-0.53055064	0.84427131	-0.53055064	-0.04568596	0.06028897	
1780000000.0	0.09632489	-0.04898557	0.68110223	-0.72416965	0.68110223	-0.72416965	-0.04299503	0.09914383	
1790000000.0	0.10048894	-0.09176125	0.47574574	-0.86899243	0.47574574	-0.86899243	-0.02316072	0.13409598	
1800000000.0	0.08405813	-0.13335230	0.24266028	-0.95721857	0.24266028	-0.95721857	0.01037806	0.15729240	
1810000000.0	0.04970348	-0.16351543	-0.00330860	-0.98528236	-0.00330860	-0.98528236	0.05080052	0.16317794	
1820000000.0	0.00489706	-0.17424517	-0.24804653	-0.95293628	-0.24804653	-0.95293628	0.08923050	0.14974404	
1830000000.0	-0.03950867	-0.16177035	-0.47840915	-0.86220305	-0.47840915	-0.86220305	0.11635458	0.11913099	
1840000000.0	-0.07135263	-0.12785726	-0.68174131	-0.71679154	-0.68174131	-0.71679154	0.12412249	0.07766778	
1850000000.0	-0.07972195	-0.08033608	-0.84516352	-0.52238794	-0.84516352	-0.52238794	0.10750460	0.03538696	
1860000000.0	-0.05792705	-0.03260157	-0.95534821	-0.28790865	-0.95534821	-0.28790865	0.06629504	0.00483464	
1870000000.0	-0.00658113	-0.00155129	-0.99960484	-0.02728443	-0.99960484	-0.02728443	0.00665595	-0.00118998	
1880000000.0	0.06423600	-0.00345506	-0.96879454	0.23937198	-0.96879454	0.23937198	-0.05845323	0.02685928	
1890000000.0	0.13549569	-0.04817330	-0.86154718	0.48688470	-0.86154718	0.48688470	-0.11116717	0.09122286	
1900000000.0	0.18383373	-0.13393723	-0.68765604	0.68948905	-0.68765604	0.68948905	-0.13344738	0.18418962	
1910000000.0	0.18935148	-0.24604521	-0.46781734	0.82749907	-0.46781734	0.82749907	-0.11318860	0.28910304	
1920000000.0	0.14279044	-0.36120863	-0.22868990	0.89265903	-0.22868990	0.89265903	-0.04847548	0.38537114	
1930000000.0	0.04802509	-0.45541697	0.00434803	0.88897135	0.00434803	0.88897135	0.05247765	0.45492541	
1940000000.0	-0.08087575	-0.51085723	0.21278481	0.82897927	0.21278481	0.82897927	0.17516832	0.48665394	
1950000000.0	-0.22527149	-0.51890704	0.38671290	0.72831406	0.38671290	0.72831406	0.30367297	0.47727821	
1960000000.0	-0.36695205	-0.47938958	0.52335307	0.60135962	0.52335307	0.60135962	0.42414196	0.42961816	
1970000000.0	-0.49096180	-0.39803532	0.62428122	0.45912672	0.62428122	0.45912672	0.52624133	0.35006524	
1980000000.0	-0.58643303	-0.28389882	0.69285670	0.30894557	0.69285670	0.30894557	0.60310199	0.24651617	
1990000000.0	-0.64629948	-0.14753359	0.73243716	0.15513426	0.73243716	0.15513426	0.65061471	0.12716003	
