! https://github.com/szoftveres 
# Hz S RI R 50
500000000.0	-0.48586229	-0.74176081	0.09434047	-0.45257995	0.09434047	-0.45257995	-0.74176081	0.48586229	
510000000.0	-0.52038326	-0.71124247	0.07969681	-0.46581523	0.07969681	-0.46581523	-0.72723715	0.49778582	
520000000.0	-0.55330039	-0.67842472	0.06392615	-0.47907413	0.06392615	-0.47907413	-0.71182802	0.50960994	
530000000.0	-0.58442203	-0.64334068	0.04694736	-0.49230032	0.04694736	-0.49230032	-0.69548448	0.52128463	
540000000.0	-0.61354664	-0.60603816	0.02867593	-0.50542651	0.02867593	-0.50542651	-0.67815715	0.53275192	
550000000.0	-0.64046312	-0.56658199	0.00902465	-0.51837284	0.00902465	-0.51837284	-0.65979693	0.54394501	
560000000.0	-0.66495124	-0.52505669	-0.01209547	-0.53104522	-0.01209547	-0.53104522	-0.64035593	0.55478731	
570000000.0	-0.68678259	-0.48156939	-0.03477401	-0.54333356	-0.03477401	-0.54333356	-0.61978863	0.56519154	
580000000.0	-0.70572200	-0.43625308	-0.05909943	-0.55510986	-0.05909943	-0.55510986	-0.59805331	0.57505872	
590000000.0	-0.72152955	-0.38926998	-0.08515706	-0.56622633	-0.08515706	-0.56622633	-0.57511384	0.58427741	
600000000.0	-0.73396336	-0.34081528	-0.11302636	-0.57651347	-0.11302636	-0.57651347	-0.55094174	0.59272292	
610000000.0	-0.74278324	-0.29112075	-0.14277768	-0.58577836	-0.14277768	-0.58577836	-0.52551877	0.60025683	
620000000.0	-0.74775551	-0.24045846	-0.17446827	-0.59380321	-0.17446827	-0.59380321	-0.49883979	0.60672683	
630000000.0	-0.74865885	-0.18914406	-0.20813751	-0.60034426	-0.20813751	-0.60034426	-0.47091612	0.61196696	
640000000.0	-0.74529164	-0.13753958	-0.24380140	-0.60513148	-0.24380140	-0.60513148	-0.44177928	0.61579853	
650000000.0	-0.73748063	-0.08605533	-0.28144620	-0.60786910	-0.28144620	-0.60786910	-0.41148506	0.61803175	
660000000.0	-0.72509103	-0.03515031	-0.32102152	-0.60823732	-0.32102152	-0.60823732	-0.38011772	0.61846832	
670000000.0	-0.70803797	0.01466909	-0.36243270	-0.60589570	-0.36243270	-0.60589570	-0.34779434	0.61690521	
680000000.0	-0.68629896	0.06285295	-0.40553313	-0.60048823	-0.40553313	-0.60048823	-0.31466887	0.61313968	
690000000.0	-0.65992705	0.10881465	-0.45011668	-0.59165077	-0.45011668	-0.59165077	-0.28093554	0.60697575	
700000000.0	-0.62906382	0.15194126	-0.49591086	-0.57902071	-0.49591086	-0.57902071	-0.24683138	0.59823215	
710000000.0	-0.59395149	0.19160789	-0.54257151	-0.56224923	-0.54257151	-0.56224923	-0.21263713	0.58675157	
720000000.0	-0.55494282	0.22719619	-0.58967971	-0.54101589	-0.58967971	-0.54101589	-0.17867619	0.57241110	
730000000.0	-0.51250745	0.25811686	-0.63674191	-0.51504518	-0.63674191	-0.51504518	-0.14531095	0.55513325	
740000000.0	-0.46723334	0.28383537	-0.68319404	-0.48412435	-0.68319404	-0.48412435	-0.11293615	0.53489713	
750000000.0	-0.41982178	0.30390002	-0.72841033	-0.44812146	-0.72841033	-0.44812146	-0.08196907	0.51174859	
760000000.0	-0.37107497	0.31797027	-0.77171728	-0.40700211	-0.77171728	-0.40700211	-0.05283638	0.48580865	
770000000.0	-0.32187559	0.32584343	-0.81241253	-0.36084353	-0.81241253	-0.36084353	-0.02595832	0.45727891	
780000000.0	-0.27315850	0.32747680	-0.84978823	-0.30984407	-0.84978823	-0.30984407	-0.00173067	0.42644299	
790000000.0	-0.22587573	0.32300316	-0.88315741	-0.25432677	-0.88315741	-0.25432677	0.01949407	0.39366340	
800000000.0	-0.18095675	0.31273688	-0.91188170	-0.19473587	-0.91188170	-0.19473587	0.03742504	0.35937316	
810000000.0	-0.13926675	0.29716955	-0.93539814	-0.13162579	-0.93539814	-0.13162579	0.05184924	0.32406269	
820000000.0	-0.10156657	0.27695435	-0.95324263	-0.06564310	-0.95324263	-0.06564310	0.06264407	0.28826238	
830000000.0	-0.06847725	0.25288009	-0.96506802	0.00249752	-0.96506802	0.00249752	0.06978519	0.25252228	
840000000.0	-0.04045268	0.22583662	-0.97065517	0.07204131	-0.97065517	0.07204131	0.07334867	0.21739037	
850000000.0	-0.01776216	0.19677456	-0.96991591	0.14222311	-0.96991591	0.14222311	0.07350758	0.18339127	
860000000.0	-0.00048413	0.16666263	-0.96288821	0.21229610	-0.96288821	0.21229610	0.07052344	0.15100699	
870000000.0	0.01148915	0.13644606	-0.94972408	0.28155755	-0.94972408	0.28155755	0.06473348	0.12066111	
880000000.0	0.01843726	0.10700900	-0.93067189	0.34936939	-0.93067189	0.34936939	0.05653517	0.09270724	
890000000.0	0.02078974	0.07914325	-0.90605496	0.41517291	-0.90605496	0.41517291	0.04636949	0.06742209	
900000000.0	0.01909908	0.05352463	-0.87624837	0.47849675	-0.87624837	0.47849675	0.03470433	0.04500300	
910000000.0	0.01401135	0.03069727	-0.84165603	0.53895870	-0.84165603	0.53895870	0.02201927	0.02556935	
920000000.0	0.00623664	0.01106550	-0.80268944	0.59626196	-0.80268944	0.59626196	0.00879258	0.00916687	
930000000.0	-0.00347870	-0.00510789	-0.75974926	0.65018680	-0.75974926	0.65018680	-0.00450918	-0.00422602	
940000000.0	-0.01437696	-0.01769835	-0.71321051	0.70057893	-0.71321051	0.70057893	-0.01743864	-0.01469089	
950000000.0	-0.02571030	-0.02671279	-0.66341157	0.74733559	-0.66341157	0.74733559	-0.02957256	-0.02236194	
960000000.0	-0.03675838	-0.03228084	-0.61064703	0.79039039	-0.61064703	0.79039039	-0.04051439	-0.02741925	
970000000.0	-0.04684257	-0.03464539	-0.55516417	0.82969766	-0.55516417	0.82969766	-0.04989510	-0.03008336	
980000000.0	-0.05533759	-0.03415336	-0.49716293	0.86521692	-0.49716293	0.86521692	-0.05737290	-0.03061129	
990000000.0	-0.06168130	-0.03124748	-0.43679890	0.89689784	-0.43679890	0.89689784	-0.06263237	-0.02929461	
1000000000.0	-0.06538376	-0.02645918	-0.37418936	0.92466599	-0.37418936	0.92466599	-0.06538376	-0.02645918	
1010000000.0	-0.06603661	-0.02040274	-0.30942219	0.94840962	-0.30942219	0.94840962	-0.06536316	-0.02246693	
1020000000.0	-0.06332371	-0.01377013	-0.24256776	0.96796765	-0.24256776	0.96796765	-0.06233412	-0.01771909	
1030000000.0	-0.05703418	-0.00732590	-0.17369406	0.98311943	-0.17369406	0.98311943	-0.05609163	-0.01266077	
1040000000.0	-0.04707837	-0.00190069	-0.10288535	0.99357668	-0.10288535	0.99357668	-0.04646893	-0.00778618	
1050000000.0	-0.03350754	0.00161812	-0.03026455	0.99897882	-0.03026455	0.99897882	-0.03334813	-0.00364354	
1060000000.0	-0.01653684	0.00230087	0.04398031	0.99889287	0.04398031	0.99889287	-0.01667507	-0.00083858	
1070000000.0	0.00342883	-0.00080215	0.11956611	0.99282000	0.11956611	0.99282000	0.00352123	-0.00003485	
1080000000.0	0.02576843	-0.00862808	0.19608186	0.98021092	0.19608186	0.98021092	0.02710458	-0.00194866	
1090000000.0	0.04962109	-0.02205563	0.27295549	0.96049289	0.27295549	0.96049289	0.05380415	-0.00733604	
1100000000.0	0.07387056	-0.04184419	0.34942361	0.93311057	0.34942361	0.93311057	0.08318564	-0.01696893	
1110000000.0	0.09714491	-0.06855796	0.42450988	0.89758233	0.42450988	0.89758233	0.11462496	-0.03159820	
1120000000.0	0.11784020	-0.10247831	0.49701898	0.85357133	0.49701898	0.85357133	0.14728983	-0.05190205	
1130000000.0	0.13417642	-0.14351206	0.56555461	0.80096751	0.56555461	0.80096751	0.18013655	-0.07842097	
1140000000.0	0.14429218	-0.19110873	0.62856884	0.73997191	0.62856884	0.73997191	0.21192961	-0.11148373	
1150000000.0	0.14637827	-0.24420435	0.68444740	0.67117017	0.68444740	0.67117017	0.24129045	-0.15113332	
1160000000.0	0.13884200	-0.30121139	0.73162892	0.59557847	0.73162892	0.59557847	0.26677787	-0.19706591	
1170000000.0	0.12048302	-0.36007137	0.76874761	0.51464509	0.76874761	0.51464509	0.28699604	-0.24859771	
1180000000.0	0.09065247	-0.41837690	0.79477948	0.43019585	0.79477948	0.43019585	0.30071796	-0.30467328	
1190000000.0	0.04936364	-0.47355557	0.80916669	0.34432198	0.80916669	0.34432198	0.30700542	-0.36392213	
1200000000.0	-0.00267228	-0.52309132	0.81189412	0.25922244	0.81189412	0.25922244	0.30530344	-0.42476049	
1210000000.0	-0.06409767	-0.56474737	0.80350108	0.17702515	0.80350108	0.17702515	0.29549055	-0.48552388	
1220000000.0	-0.13303979	-0.59675235	0.78502446	0.09961746	0.78502446	0.09961746	0.27787534	-0.54460834	
1230000000.0	-0.20729710	-0.61791965	0.75788532	0.02851417	0.75788532	0.02851417	0.25314174	-0.60059640	
1240000000.0	-0.28454551	-0.62768672	0.72374227	-0.03521877	0.72374227	-0.03521877	0.22225638	-0.65234873	
1250000000.0	-0.36252964	-0.62607920	0.68433882	-0.09098066	0.68433882	-0.09098066	0.18635768	-0.69905201	
1260000000.0	-0.43921371	-0.61361861	0.64136835	-0.13860070	0.64136835	-0.13860070	0.14664624	-0.74022386	
1270000000.0	-0.51287936	-0.59119898	0.59637183	-0.17826712	0.59637183	-0.17826712	0.10429169	-0.77568339	
1280000000.0	-0.58217075	-0.55995635	0.55067372	-0.21043895	0.55067372	-0.21043895	0.06036418	-0.80549989	
1290000000.0	-0.64609587	-0.52114972	0.50535341	-0.23575627	0.50535341	-0.23575627	0.01579235	-0.82993223	
1300000000.0	-0.70399694	-0.47606384	0.46124503	-0.25495992	0.46124503	-0.25495992	-0.02865528	-0.84936879	
1310000000.0	-0.75550299	-0.42593773	0.41895656	-0.26882648	0.41895656	-0.26882648	-0.07237085	-0.86427437	
1320000000.0	-0.80047554	-0.37191787	0.37889994	-0.27812022	0.37889994	-0.27812022	-0.11489560	-0.87514741	
1330000000.0	-0.83895483	-0.31503196	0.34132531	-0.28356074	0.34132531	-0.28356074	-0.15590151	-0.88248799	
1340000000.0	-0.87111152	-0.25617856	0.30635504	-0.28580387	0.30635504	-0.28580387	-0.19517020	-0.88677581	
1350000000.0	-0.89720582	-0.19612773	0.27401452	-0.28543244	0.27401452	-0.28543244	-0.23257183	-0.88845636	
1360000000.0	-0.91755467	-0.13552867	0.24425858	-0.28295434	0.24425858	-0.28295434	-0.26804577	-0.88793359	
1370000000.0	-0.93250656	-0.07492118	0.21699309	-0.27880518	0.21699309	-0.27880518	-0.30158376	-0.88556700	
1380000000.0	-0.94242288	-0.01474884	0.19209199	-0.27335372	0.19209199	-0.27335372	-0.33321587	-0.88167204	
1390000000.0	-0.94766462	0.04462760	0.16941034	-0.26690876	0.16941034	-0.26690876	-0.36299919	-0.87652235	
1400000000.0	-0.94858342	0.10291764	0.14879397	-0.25972640	0.14879397	-0.25972640	-0.39100889	-0.87035314	
1410000000.0	-0.94551580	0.15988950	0.13008650	-0.25201729	0.13008650	-0.25201729	-0.41733138	-0.86336511	
1420000000.0	-0.93877980	0.21536004	0.11313412	-0.24395331	0.11313412	-0.24395331	-0.44205915	-0.85572844	
1430000000.0	-0.92867332	0.26918608	0.09778885	-0.23567363	0.09778885	-0.23567363	-0.46528702	-0.84758673	
1440000000.0	-0.91547372	0.32125708	0.08391060	-0.22729006	0.08391060	-0.22729006	-0.48710940	-0.83906059	
1450000000.0	-0.89943814	0.37148896	0.07136824	-0.21889165	0.07136824	-0.21889165	-0.50761844	-0.83025089	
1460000000.0	-0.88080440	0.41981905	0.06004019	-0.21054866	0.06004019	-0.21054866	-0.52690272	-0.82124172	
1470000000.0	-0.85979215	0.46620195	0.04981444	-0.20231589	0.04981444	-0.20231589	-0.54504652	-0.81210288	
1480000000.0	-0.83660419	0.51060611	0.04058837	-0.19423546	0.04058837	-0.19423546	-0.56212935	-0.80289212	
1490000000.0	-0.81142790	0.55301106	0.03226831	-0.18633919	0.03226831	-0.18633919	-0.57822575	-0.79365701	
1500000000.0	-0.78443655	0.59340526	0.02476905	-0.17865048	0.02476905	-0.17865048	-0.59340526	-0.78443655	
