! https://github.com/szoftveres 
# Hz S RI R 50
500000000.0	-0.08759124	-0.24087591	0.40875912	-0.87591241	0.40875912	-0.87591241	-0.24087591	0.08759124	
510000000.0	-0.09570140	-0.23428573	0.38856723	-0.88598360	0.38856723	-0.88598360	-0.23717618	0.08829508	
520000000.0	-0.10341096	-0.22736405	0.36809707	-0.89560946	0.36809707	-0.89560946	-0.23340862	0.08893060	
530000000.0	-0.11070353	-0.22013272	0.34735705	-0.90478141	0.34735705	-0.90478141	-0.22957388	0.08949590	
540000000.0	-0.11756378	-0.21261452	0.32635586	-0.91349093	0.32635586	-0.91349093	-0.22567264	0.08998909	
550000000.0	-0.12397756	-0.20483311	0.30510247	-0.92172959	0.30510247	-0.92172959	-0.22170563	0.09040823	
560000000.0	-0.12993189	-0.19681293	0.28360614	-0.92948907	0.28360614	-0.92948907	-0.21767364	0.09075137	
570000000.0	-0.13541505	-0.18857921	0.26187642	-0.93676111	0.26187642	-0.93676111	-0.21357749	0.09101654	
580000000.0	-0.14041663	-0.18015787	0.23992316	-0.94353759	0.23992316	-0.94353759	-0.20941807	0.09120174	
590000000.0	-0.14492754	-0.17157546	0.21775650	-0.94981049	0.21775650	-0.94981049	-0.20519632	0.09130497	
600000000.0	-0.14894008	-0.16285912	0.19538691	-0.95557193	0.19538691	-0.95557193	-0.20091324	0.09132420	
610000000.0	-0.15244798	-0.15403649	0.17282514	-0.96081416	0.17282514	-0.96081416	-0.19656988	0.09125738	
620000000.0	-0.15544643	-0.14513566	0.15008228	-0.96552957	0.15008228	-0.96552957	-0.19216737	0.09110244	
630000000.0	-0.15793211	-0.13618507	0.12716972	-0.96971075	0.12716972	-0.96971075	-0.18770688	0.09085731	
640000000.0	-0.15990323	-0.12721346	0.10409917	-0.97335043	0.10409917	-0.97335043	-0.18318967	0.09051991	
650000000.0	-0.16135955	-0.11824980	0.08088268	-0.97644154	0.08088268	-0.97644154	-0.17861704	0.09008813	
660000000.0	-0.16230242	-0.10932315	0.05753261	-0.97897721	0.05753261	-0.97897721	-0.17399040	0.08955987	
670000000.0	-0.16273478	-0.10046267	0.03406165	-0.98095079	0.03406165	-0.98095079	-0.16931119	0.08893301	
680000000.0	-0.16266119	-0.09169746	0.01048282	-0.98235585	0.01048282	-0.98235585	-0.16458095	0.08820543	
690000000.0	-0.16208782	-0.08305651	-0.01319055	-0.98318623	-0.01319055	-0.98318623	-0.15980129	0.08737501	
700000000.0	-0.16102251	-0.07456859	-0.03694476	-0.98343600	-0.03694476	-0.98343600	-0.15497391	0.08643963	
710000000.0	-0.15947470	-0.06626219	-0.06076583	-0.98309951	-0.06076583	-0.98309951	-0.15010057	0.08539717	
720000000.0	-0.15745550	-0.05816540	-0.08463941	-0.98217143	-0.08463941	-0.98217143	-0.14518312	0.08424553	
730000000.0	-0.15497763	-0.05030584	-0.10855086	-0.98064671	-0.10855086	-0.98064671	-0.14022351	0.08298258	
740000000.0	-0.15205543	-0.04271056	-0.13248519	-0.97852063	-0.13248519	-0.97852063	-0.13522376	0.08160625	
750000000.0	-0.14870486	-0.03540592	-0.15642710	-0.97578883	-0.15642710	-0.97578883	-0.13018598	0.08011445	
760000000.0	-0.14494345	-0.02841754	-0.18036098	-0.97244730	-0.18036098	-0.97244730	-0.12511237	0.07850512	
770000000.0	-0.14079029	-0.02177019	-0.20427090	-0.96849241	-0.20427090	-0.96849241	-0.12000524	0.07677623	
780000000.0	-0.13626599	-0.01548766	-0.22814063	-0.96392093	-0.22814063	-0.96392093	-0.11486696	0.07492576	
790000000.0	-0.13139265	-0.00959273	-0.25195365	-0.95873005	-0.25195365	-0.95873005	-0.10970001	0.07295173	
800000000.0	-0.12619380	-0.00410704	-0.27569313	-0.95291739	-0.27569313	-0.95291739	-0.10450699	0.07085219	
810000000.0	-0.12069439	0.00094903	-0.29934197	-0.94648103	-0.29934197	-0.94648103	-0.09929055	0.06862524	
820000000.0	-0.11492067	0.00555639	-0.32288281	-0.93941953	-0.32288281	-0.93941953	-0.09405347	0.06626899	
830000000.0	-0.10890020	0.00969735	-0.34629801	-0.93173194	-0.34629801	-0.93173194	-0.08879862	0.06378163	
840000000.0	-0.10266172	0.01335574	-0.36956969	-0.92341780	-0.36956969	-0.92341780	-0.08352897	0.06116138	
850000000.0	-0.09623513	0.01651695	-0.39267974	-0.91447724	-0.39267974	-0.91447724	-0.07824759	0.05840654	
860000000.0	-0.08965137	0.01916803	-0.41560982	-0.90491088	-0.41560982	-0.90491088	-0.07295763	0.05551545	
870000000.0	-0.08294236	0.02129778	-0.43834141	-0.89471994	-0.43834141	-0.89471994	-0.06766237	0.05248652	
880000000.0	-0.07614091	0.02289680	-0.46085577	-0.88390625	-0.46085577	-0.88390625	-0.06236516	0.04931824	
890000000.0	-0.06928061	0.02395755	-0.48313402	-0.87247221	-0.48313402	-0.87247221	-0.05706947	0.04600917	
900000000.0	-0.06239574	0.02447448	-0.50515711	-0.86042086	-0.50515711	-0.86042086	-0.05177885	0.04255796	
910000000.0	-0.05552116	0.02444400	-0.52690588	-0.84775591	-0.52690588	-0.84775591	-0.04649696	0.03896333	
920000000.0	-0.04869218	0.02386462	-0.54836107	-0.83448169	-0.54836107	-0.83448169	-0.04122754	0.03522412	
930000000.0	-0.04194449	0.02273692	-0.56950331	-0.82060324	-0.56950331	-0.82060324	-0.03597443	0.03133925	
940000000.0	-0.03531400	0.02106366	-0.59031321	-0.80612627	-0.59031321	-0.80612627	-0.03074156	0.02730775	
950000000.0	-0.02883672	0.01884978	-0.61077133	-0.79105721	-0.61077133	-0.79105721	-0.02553294	0.02312877	
960000000.0	-0.02254866	0.01610243	-0.63085824	-0.77540322	-0.63085824	-0.77540322	-0.02035268	0.01880155	
970000000.0	-0.01648563	0.01283101	-0.65055454	-0.75917217	-0.65055454	-0.75917217	-0.01520496	0.01432550	
980000000.0	-0.01068320	0.00904715	-0.66984087	-0.74237270	-0.66984087	-0.74237270	-0.01009404	0.00970010	
990000000.0	-0.00517647	0.00476476	-0.68869800	-0.72501419	-0.68869800	-0.72501419	-0.00502425	0.00492501	
1000000000.0	-0.00000000	0.00000000	-0.70710678	-0.70710678	-0.70710678	-0.70710678	-0.00000000	0.00000000	
1010000000.0	0.00481238	-0.00522873	-0.72504825	-0.68866140	-0.72504825	-0.68866140	0.00497425	-0.00507499	
1020000000.0	0.00922770	-0.01090082	-0.74250364	-0.66968975	-0.74250364	-0.66968975	0.00989396	-0.01029990	
1030000000.0	0.01321398	-0.01699345	-0.75945440	-0.65020430	-0.75945440	-0.65020430	0.01475456	-0.01567448	
1040000000.0	0.01674038	-0.02348164	-0.77588224	-0.63021831	-0.77588224	-0.63021831	0.01955141	-0.02119836	
1050000000.0	0.01977736	-0.03033834	-0.79176920	-0.60974582	-0.79176920	-0.60974582	0.02427983	-0.02687096	
1060000000.0	0.02229681	-0.03753442	-0.80709765	-0.58880166	-0.80709765	-0.58880166	0.02893512	-0.03269157	
1070000000.0	0.02427219	-0.04503878	-0.82185034	-0.56740143	-0.82185034	-0.56740143	0.03351255	-0.03865929	
1080000000.0	0.02567866	-0.05281845	-0.83601045	-0.54556150	-0.83601045	-0.54556150	0.03800733	-0.04477304	
1090000000.0	0.02649323	-0.06083860	-0.84956161	-0.52329900	-0.84956161	-0.52329900	0.04241471	-0.05103155	
1100000000.0	0.02669488	-0.06906274	-0.86248798	-0.50063181	-0.86248798	-0.50063181	0.04672990	-0.05743340	
1110000000.0	0.02626469	-0.07745274	-0.87477423	-0.47757857	-0.87477423	-0.47757857	0.05094812	-0.06397694	
1120000000.0	0.02518597	-0.08596898	-0.88640564	-0.45415861	-0.88640564	-0.45415861	0.05506461	-0.07066036	
1130000000.0	0.02344433	-0.09457050	-0.89736811	-0.43039199	-0.89736811	-0.43039199	0.05907462	-0.07748165	
1140000000.0	0.02102785	-0.10321510	-0.90764819	-0.40629944	-0.90764819	-0.40629944	0.06297342	-0.08443860	
1150000000.0	0.01792712	-0.11185950	-0.91723315	-0.38190236	-0.91723315	-0.38190236	0.06675633	-0.09152880	
1160000000.0	0.01413539	-0.12045948	-0.92611101	-0.35722277	-0.92611101	-0.35722277	0.07041873	-0.09874968	
1170000000.0	0.00964858	-0.12897006	-0.93427053	-0.33228332	-0.93427053	-0.33228332	0.07395604	-0.10609842	
1180000000.0	0.00446542	-0.13734562	-0.94170133	-0.30710722	-0.94170133	-0.30710722	0.07736374	-0.11357205	
1190000000.0	-0.00141254	-0.14554015	-0.94839386	-0.28171823	-0.94839386	-0.28171823	0.08063741	-0.12116740	
1200000000.0	-0.00798086	-0.15350734	-0.95433945	-0.25614062	-0.95433945	-0.25614062	0.08377270	-0.12888108	
1210000000.0	-0.01523215	-0.16120083	-0.95953036	-0.23039912	-0.95953036	-0.23039912	0.08676536	-0.13670954	
1220000000.0	-0.02315610	-0.16857436	-0.96395980	-0.20451890	-0.96395980	-0.20451890	0.08961126	-0.14464903	
1230000000.0	-0.03173940	-0.17558196	-0.96762194	-0.17852551	-0.96762194	-0.17852551	0.09230636	-0.15269561	
1240000000.0	-0.04096579	-0.18217818	-0.97051197	-0.15244485	-0.97051197	-0.15244485	0.09484678	-0.16084519	
1250000000.0	-0.05081603	-0.18831825	-0.97262608	-0.12630312	-0.97262608	-0.12630312	0.09722875	-0.16909347	
1260000000.0	-0.06126799	-0.19395825	-0.97396153	-0.10012675	-0.97396153	-0.10012675	0.09944865	-0.17743600	
1270000000.0	-0.07229660	-0.19905538	-0.97451664	-0.07394239	-0.97451664	-0.07394239	0.10150304	-0.18586816	
1280000000.0	-0.08387397	-0.20356808	-0.97429080	-0.04777682	-0.97429080	-0.04777682	0.10338862	-0.19438518	
1290000000.0	-0.09596943	-0.20745625	-0.97328452	-0.02165694	-0.97328452	-0.02165694	0.10510226	-0.20298213	
1300000000.0	-0.10854962	-0.21068147	-0.97149937	0.00439033	-0.97149937	0.00439033	0.10664103	-0.21165394	
1310000000.0	-0.12157855	-0.21320710	-0.96893807	0.03033809	-0.96893807	0.03033809	0.10800217	-0.22039543	
1320000000.0	-0.13501776	-0.21499854	-0.96560445	0.05615947	-0.96560445	0.05615947	0.10918314	-0.22920124	
1330000000.0	-0.14882639	-0.21602335	-0.96150342	0.08182777	-0.96150342	0.08182777	0.11018158	-0.23806596	
1340000000.0	-0.16296133	-0.21625144	-0.95664105	0.10731644	-0.95664105	0.10731644	0.11099536	-0.24698403	
1350000000.0	-0.17737736	-0.21565520	-0.95102448	0.13259918	-0.95102448	0.13259918	0.11162255	-0.25594980	
1360000000.0	-0.19202730	-0.21420967	-0.94466196	0.15764997	-0.94466196	0.15764997	0.11206145	-0.26495754	
1370000000.0	-0.20686218	-0.21189267	-0.93756282	0.18244315	-0.93756282	0.18244315	0.11231059	-0.27400145	
1380000000.0	-0.22183140	-0.20868490	-0.92973744	0.20695345	-0.92973744	0.20695345	0.11236873	-0.28307566	
1390000000.0	-0.23688293	-0.20457011	-0.92119727	0.23115607	-0.92119727	0.23115607	0.11223485	-0.29217425	
1400000000.0	-0.25196348	-0.19953512	-0.91195478	0.25502671	-0.91195478	0.25502671	0.11190818	-0.30129125	
1410000000.0	-0.26701870	-0.19356998	-0.90202342	0.27854162	-0.90202342	0.27854162	0.11138818	-0.31042067	
1420000000.0	-0.28199341	-0.18666800	-0.89141761	0.30167767	-0.89141761	0.30167767	0.11067457	-0.31955651	
1430000000.0	-0.29683177	-0.17882584	-0.88015273	0.32441238	-0.88015273	0.32441238	0.10976729	-0.32869275	
1440000000.0	-0.31147752	-0.17004353	-0.86824502	0.34672400	-0.86824502	0.34672400	0.10866652	-0.33782338	
1450000000.0	-0.32587419	-0.16032451	-0.85571162	0.36859148	-0.85571162	0.36859148	0.10737270	-0.34694242	
1460000000.0	-0.33996529	-0.14967567	-0.84257048	0.38999459	-0.84257048	0.38999459	0.10588648	-0.35604390	
1470000000.0	-0.35369457	-0.13810730	-0.82884031	0.41091393	-0.82884031	0.41091393	0.10420877	-0.36512191	
1480000000.0	-0.36700623	-0.12563313	-0.81454059	0.43133093	-0.81454059	0.43133093	0.10234071	-0.37417059	
1490000000.0	-0.37984509	-0.11227029	-0.79969147	0.45122794	-0.79969147	0.45122794	0.10028366	-0.38318415	
1500000000.0	-0.39215686	-0.09803922	-0.78431373	0.47058824	-0.78431373	0.47058824	0.09803922	-0.39215686	
1510000000.0	-0.40388834	-0.08296368	-0.76842875	0.48939604	-0.76842875	0.48939604	0.09560918	-0.40108310	
1520000000.0	-0.41498760	-0.06707064	-0.75205848	0.50763655	-0.75205848	0.50763655	0.09299558	-0.40995732	
1530000000.0	-0.42540420	-0.05039022	-0.73522530	0.52529597	-0.73522530	0.52529597	0.09020066	-0.41877410	
1540000000.0	-0.43508937	-0.03295555	-0.71795207	0.54236150	-0.71795207	0.54236150	0.08722684	-0.42752813	
1550000000.0	-0.44399622	-0.01480271	-0.70026202	0.55882139	-0.70026202	0.55882139	0.08407678	-0.43621423	
1560000000.0	-0.45207989	0.00402942	-0.68217869	0.57466492	-0.68217869	0.57466492	0.08075327	-0.44482735	
1570000000.0	-0.45929775	0.02349930	-0.66372591	0.58988242	-0.66372591	0.58988242	0.07725934	-0.45336259	
1580000000.0	-0.46560952	0.04356285	-0.64492774	0.60446527	-0.64492774	0.60446527	0.07359814	-0.46181518	
1590000000.0	-0.47097745	0.06417360	-0.62580837	0.61840592	-0.62580837	0.61840592	0.06977302	-0.47018054	
1600000000.0	-0.47536645	0.08528290	-0.60639212	0.63169784	-0.60639212	0.63169784	0.06578746	-0.47845422	
1610000000.0	-0.47874420	0.10684003	-0.58670339	0.64433557	-0.58670339	0.64433557	0.06164509	-0.48663198	
1620000000.0	-0.48108128	0.12879241	-0.56676657	0.65631469	-0.56676657	0.65631469	0.05734968	-0.49470971	
1630000000.0	-0.48235128	0.15108577	-0.54660598	0.66763181	-0.54660598	0.66763181	0.05290513	-0.50268351	
1640000000.0	-0.48253086	0.17366436	-0.52624590	0.67828454	-0.52624590	0.67828454	0.04831543	-0.51054966	
1650000000.0	-0.48159984	0.19647112	-0.50571044	0.68827149	-0.50571044	0.68827149	0.04358471	-0.51830462	
1660000000.0	-0.47954128	0.21944785	-0.48502352	0.69759227	-0.48502352	0.69759227	0.03871716	-0.52594504	
1670000000.0	-0.47634151	0.24253548	-0.46420885	0.70624744	-0.46420885	0.70624744	0.03371708	-0.53346776	
1680000000.0	-0.47199016	0.26567420	-0.44328986	0.71423848	-0.44328986	0.71423848	0.02858883	-0.54086983	
1690000000.0	-0.46648021	0.28880369	-0.42228964	0.72156781	-0.42228964	0.72156781	0.02333685	-0.54814847	
1700000000.0	-0.45980797	0.31186331	-0.40123097	0.72823871	-0.40123097	0.72823871	0.01796562	-0.55530111	
1710000000.0	-0.45197310	0.33479231	-0.38013622	0.73425533	-0.38013622	0.73425533	0.01247968	-0.56232538	
1720000000.0	-0.44297860	0.35753001	-0.35902733	0.73962263	-0.35902733	0.73962263	0.00688358	-0.56921908	
1730000000.0	-0.43283077	0.38001599	-0.33792579	0.74434638	-0.33792579	0.74434638	0.00118192	-0.57598023	
1740000000.0	-0.42153918	0.40219029	-0.31685262	0.74843311	-0.31685262	0.74843311	-0.00462068	-0.58260703	
1750000000.0	-0.40911661	0.42399358	-0.29582831	0.75189006	-0.29582831	0.75189006	-0.01051960	-0.58909786	
1760000000.0	-0.39557902	0.44536736	-0.27487281	0.75472518	-0.27487281	0.75472518	-0.01651024	-0.59545131	
1770000000.0	-0.38094545	0.46625411	-0.25400553	0.75694706	-0.25400553	0.75694706	-0.02258797	-0.60166612	
1780000000.0	-0.36523797	0.48659747	-0.23324528	0.75856494	-0.23324528	0.75856494	-0.02874821	-0.60774124	
1790000000.0	-0.34848155	0.50634239	-0.21261027	0.75958862	-0.21261027	0.75958862	-0.03498638	-0.61367578	
1800000000.0	-0.33070403	0.52543529	-0.19211812	0.76002844	-0.19211812	0.76002844	-0.04129794	-0.61946903	
1810000000.0	-0.31193594	0.54382420	-0.17178579	0.75989529	-0.17178579	0.75989529	-0.04767839	-0.62512044	
1820000000.0	-0.29221047	0.56145891	-0.15162961	0.75920049	-0.15162961	0.75920049	-0.05412327	-0.63062964	
1830000000.0	-0.27156328	0.57829109	-0.13166527	0.75795584	-0.13166527	0.75795584	-0.06062818	-0.63599640	
1840000000.0	-0.25003244	0.59427438	-0.11190780	0.75617351	-0.11190780	0.75617351	-0.06718877	-0.64122065	
1850000000.0	-0.22765823	0.60936457	-0.09237156	0.75386607	-0.09237156	0.75386607	-0.07380076	-0.64630248	
1860000000.0	-0.20448310	0.62351964	-0.07307025	0.75104638	-0.07307025	0.75104638	-0.08045991	-0.65124210	
1870000000.0	-0.18055144	0.63669988	-0.05401690	0.74772764	-0.05401690	0.74772764	-0.08716209	-0.65603988	
1880000000.0	-0.15590953	0.64886797	-0.03522388	0.74392328	-0.03522388	0.74392328	-0.09390322	-0.66069631	
1890000000.0	-0.13060530	0.65998908	-0.01670288	0.73964700	-0.01670288	0.73964700	-0.10067931	-0.66521200	
1900000000.0	-0.10468829	0.67003089	0.00153506	0.73491266	0.00153506	0.73491266	-0.10748645	-0.66958770	
1910000000.0	-0.07820942	0.67896367	0.01947957	0.72973431	0.01947957	0.72973431	-0.11432081	-0.67382426	
1920000000.0	-0.05122088	0.68676037	0.03712090	0.72412613	0.03712090	0.72412613	-0.12117867	-0.67792265	
1930000000.0	-0.02377599	0.69339658	0.05444998	0.71810242	0.05444998	0.71810242	-0.12805639	-0.68188392	
1940000000.0	0.00407096	0.69885063	0.07145837	0.71167754	0.07145837	0.71167754	-0.13495041	-0.68570924	
1950000000.0	0.03226488	0.70310359	0.08813822	0.70486592	0.08813822	0.70486592	-0.14185728	-0.68939988	
1960000000.0	0.06074997	0.70613927	0.10448234	0.69768202	0.10448234	0.69768202	-0.14877366	-0.69295717	
1970000000.0	0.08946992	0.70794427	0.12048412	0.69014029	0.12048412	0.69014029	-0.15569629	-0.69638252	
1980000000.0	0.11836799	0.70850792	0.13613753	0.68225517	0.13613753	0.68225517	-0.16262200	-0.69967745	
1990000000.0	0.14738724	0.70782233	0.15143714	0.67404105	0.15143714	0.67404105	-0.16954775	-0.70284352	
2000000000.0	0.17647059	0.70588235	0.16637807	0.66551226	0.16637807	0.66551226	-0.17647059	-0.70588235	
