# Hz S RI R 50
330000000	-0.098089744	0.411467328
334900000	-0.075800184	0.411757088
339800000	-0.055447048	0.403075904
344700000	-0.035176668	0.407221056
349600000	-0.017829058	0.40512448
354500000	0.001748996	0.39422736
359400000	0.017822814	0.394999744
364300000	0.034486552	0.3884624
369200000	0.051405992	0.376645216
374100000	0.069913808	0.371703744
379000000	0.084088744	0.365091776
383900000	0.100531904	0.352050624
388800000	0.114298104	0.34758208
393700000	0.132310272	0.336147808
398600000	0.142981968	0.321868032
403500000	0.1573372	0.31235568
408400000	0.172947936	0.299038912
413300000	0.182512672	0.283566496
418200000	0.19507296	0.280415392
423100000	0.207538016	0.268457824
428000000	0.214608384	0.253885184
432900000	0.227973984	0.24341088
437800000	0.237323776	0.22643496
442700000	0.242223744	0.214078016
447600000	0.254889168	0.205615952
452500000	0.264975104	0.192973216
457400000	0.267197488	0.182205984
462300000	0.25755888	0.15979296
467200000	0.278702848	0.150564816
472100000	0.290628928	0.137962256
477000000	0.29272544	0.12705584
481900000	0.295436992	0.116232136
486800000	0.298679296	0.103021424
491700000	0.306287936	0.086053016
496600000	0.305789696	0.073332592
501500000	0.305811904	0.057254864
506400000	0.302954272	0.04767516
511300000	0.302037024	0.03654384
516200000	0.300863488	0.023159444
521100000	0.30018272	0.008982426
526000000	0.293311328	-0.004447121
530900000	0.28790192	-0.012642064
535800000	0.287043744	-0.027422334
540700000	0.281090656	-0.040243872
545600000	0.278214848	-0.051413728
550500000	0.276941312	-0.063119112
555400000	0.267461872	-0.072057504
560300000	0.259906864	-0.083094
565200000	0.253892064	-0.09391716
570100000	0.244012128	-0.103791016
575000000	0.234386384	-0.114571168
579900000	0.227706448	-0.122172864
584800000	0.21749064	-0.131000456
589700000	0.206517968	-0.133380192
594600000	0.193146752	-0.140593968
599500000	0.17321936	-0.142462544
604400000	0.17636856	-0.161916848
609300000	0.168510848	-0.172266528
614200000	0.155166528	-0.177891904
619100000	0.14311256	-0.184451872
624000000	0.136697952	-0.191189296
628900000	0.124589976	-0.196965504
633800000	0.113073328	-0.20796776
638700000	0.100292792	-0.21426656
643600000	0.088687232	-0.210992752
648500000	0.077528208	-0.216897392
653400000	0.062500268	-0.226409616
658300000	0.04672058	-0.228025648
663200000	0.035587384	-0.233317168
668100000	0.022359656	-0.232833936
673000000	0.015196664	-0.235089472
677900000	0.001580611	-0.234259728
682800000	-0.012861524	-0.234128624
687700000	-0.024751868	-0.237109792
692600000	-0.036757132	-0.235739424
697500000	-0.05276292	-0.239582896
702400000	-0.054527176	-0.233838384
707300000	-0.0728952	-0.238072
712200000	-0.082507336	-0.230612496
717100000	-0.098489728	-0.226395328
722000000	-0.111672904	-0.222963824
726900000	-0.121652408	-0.222061568
731800000	-0.127060072	-0.214978688
736700000	-0.13832296	-0.209062576
741600000	-0.148357456	-0.20415064
746500000	-0.161297968	-0.20466776
751400000	-0.170009456	-0.196381184
756300000	-0.179135088	-0.193320736
761200000	-0.186029856	-0.181312208
766100000	-0.19851632	-0.176089168
771000000	-0.202894976	-0.17571352
775900000	-0.211176848	-0.167071968
780800000	-0.220576192	-0.15597016
785700000	-0.22532616	-0.149329488
790600000	-0.232733904	-0.139802
795500000	-0.2481656	-0.128695128
800400000	-0.252015088	-0.117525504
805300000	-0.263305216	-0.107906632
810200000	-0.266999696	-0.097747752
815100000	-0.277046464	-0.089084944
820000000	-0.274844992	-0.082368544
