# Hz S RI R 50
450000000	0.24969952	0.981304832	0.08907944	-0.039606576	0.08907944	-0.039606576	0.24969952	0.981304832
454000000	0.280260736	0.967758208	0.096406536	-0.045632912	0.096406536	-0.045632912	0.280260736	0.967758208
458000000	0.3006384	0.94954592	0.10057016	-0.054225916	0.10057016	-0.054225916	0.3006384	0.94954592
462000000	0.302348672	0.901494848	0.108528512	-0.06591124	0.108528512	-0.06591124	0.302348672	0.901494848
466000000	0.343924576	0.915809984	0.10514124	-0.070838008	0.10514124	-0.070838008	0.343924576	0.915809984
470000000	0.393132896	0.92417184	0.109446008	-0.082432512	0.109446008	-0.082432512	0.393132896	0.92417184
474000000	0.43036448	0.922349888	0.110029672	-0.093708096	0.110029672	-0.093708096	0.43036448	0.922349888
478000000	0.455301952	0.914437824	0.10885176	-0.103633616	0.10885176	-0.103633616	0.455301952	0.914437824
482000000	0.487906976	0.892649088	0.111928952	-0.118312568	0.111928952	-0.118312568	0.487906976	0.892649088
486000000	0.516568	0.872906176	0.11281324	-0.131432488	0.11281324	-0.131432488	0.516568	0.872906176
490000000	0.547180608	0.867389952	0.110169392	-0.139193072	0.110169392	-0.139193072	0.547180608	0.867389952
494000000	0.573908672	0.845155264	0.108004176	-0.150826432	0.108004176	-0.150826432	0.573908672	0.845155264
498000000	0.59864448	0.8196512	0.10548528	-0.163086272	0.10548528	-0.163086272	0.59864448	0.8196512
502000000	0.625410304	0.798825472	0.09931836	-0.174057056	0.09931836	-0.174057056	0.625410304	0.798825472
506000000	0.65722336	0.777551936	0.09345792	-0.187572752	0.09345792	-0.187572752	0.65722336	0.777551936
510000000	0.67388928	0.75278144	0.088714872	-0.197180448	0.088714872	-0.197180448	0.67388928	0.75278144
514000000	0.690295488	0.722281728	0.086742408	-0.210302784	0.086742408	-0.210302784	0.690295488	0.722281728
518000000	0.721307136	0.702848192	0.080571472	-0.218671424	0.080571472	-0.218671424	0.721307136	0.702848192
522000000	0.737876416	0.67258592	0.072493352	-0.229059344	0.072493352	-0.229059344	0.737876416	0.67258592
526000000	0.7535632	0.64433824	0.069192184	-0.238743488	0.069192184	-0.238743488	0.7535632	0.64433824
530000000	0.76270816	0.610686528	0.05997356	-0.247165792	0.05997356	-0.247165792	0.76270816	0.610686528
534000000	0.791838912	0.581727232	0.054768948	-0.256804496	0.054768948	-0.256804496	0.791838912	0.581727232
538000000	0.804764736	0.547431424	0.04680594	-0.266115008	0.04680594	-0.266115008	0.804764736	0.547431424
542000000	0.808211776	0.510640032	0.038710252	-0.276536832	0.038710252	-0.276536832	0.808211776	0.510640032
546000000	0.8225696	0.472128704	0.03009823	-0.287066112	0.03009823	-0.287066112	0.8225696	0.472128704
550000000	0.838820864	0.442563232	0.02559197	-0.29425488	0.02559197	-0.29425488	0.838820864	0.442563232
554000000	0.84348256	0.402079008	0.016990498	-0.307242496	0.016990498	-0.307242496	0.84348256	0.402079008
558000000	0.843059392	0.36573136	0.010532312	-0.319702688	0.010532312	-0.319702688	0.843059392	0.36573136
562000000	0.857591168	0.332020256	0.002433252	-0.328484032	0.002433252	-0.328484032	0.857591168	0.332020256
566000000	0.863517312	0.294543104	-0.006254776	-0.341821344	-0.006254776	-0.341821344	0.863517312	0.294543104
570000000	0.859657088	0.253944064	-0.016856422	-0.35794704	-0.016856422	-0.35794704	0.859657088	0.253944064
574000000	0.856500928	0.210474064	-0.028984114	-0.374655232	-0.028984114	-0.374655232	0.856500928	0.210474064
578000000	0.858686464	0.173215424	-0.040749244	-0.386161888	-0.040749244	-0.386161888	0.858686464	0.173215424
582000000	0.851327232	0.129486952	-0.054852456	-0.406163808	-0.054852456	-0.406163808	0.851327232	0.129486952
586000000	0.835919296	0.090734888	-0.069825264	-0.426669792	-0.069825264	-0.426669792	0.835919296	0.090734888
590000000	0.808648	0.047361804	-0.09103596	-0.454419744	-0.09103596	-0.454419744	0.808648	0.047361804
594000000	0.77233248	0.007817134	-0.120572192	-0.481937536	-0.120572192	-0.481937536	0.77233248	0.007817134
598000000	0.733725952	-0.035882056	-0.155559184	-0.516269152	-0.155559184	-0.516269152	0.733725952	-0.035882056
602000000	0.765875136	-0.065321856	-0.15511968	-0.49929792	-0.15511968	-0.49929792	0.765875136	-0.065321856
606000000	0.758598336	-0.10658756	-0.184284976	-0.51474304	-0.184284976	-0.51474304	0.758598336	-0.10658756
610000000	0.735020416	-0.144618928	-0.218536352	-0.53478128	-0.218536352	-0.53478128	0.735020416	-0.144618928
614000000	0.702413312	-0.178011136	-0.260348768	-0.555991296	-0.260348768	-0.555991296	0.702413312	-0.178011136
618000000	0.67633696	-0.210119536	-0.300959168	-0.56753152	-0.300959168	-0.56753152	0.67633696	-0.210119536
622000000	0.645589312	-0.242526976	-0.345198272	-0.573085952	-0.345198272	-0.573085952	0.645589312	-0.242526976
626000000	0.616388096	-0.269927904	-0.394207968	-0.583415296	-0.394207968	-0.583415296	0.616388096	-0.269927904
630000000	0.57610144	-0.291365824	-0.453406528	-0.585042368	-0.453406528	-0.585042368	0.57610144	-0.291365824
634000000	0.546953216	-0.317682944	-0.505666912	-0.570931328	-0.505666912	-0.570931328	0.546953216	-0.317682944
638000000	0.513923808	-0.33647968	-0.561119616	-0.554032576	-0.561119616	-0.554032576	0.513923808	-0.33647968
642000000	0.477509344	-0.3496472	-0.620081856	-0.535482752	-0.620081856	-0.535482752	0.477509344	-0.3496472
646000000	0.439417408	-0.360293792	-0.677638144	-0.505286816	-0.677638144	-0.505286816	0.439417408	-0.360293792
650000000	0.409903424	-0.372546752	-0.713751488	-0.467631904	-0.713751488	-0.467631904	0.409903424	-0.372546752
654000000	0.372893408	-0.375704224	-0.756067648	-0.428097472	-0.756067648	-0.428097472	0.372893408	-0.375704224
658000000	0.33948944	-0.37582304	-0.798448448	-0.388834432	-0.798448448	-0.388834432	0.33948944	-0.37582304
662000000	0.310833952	-0.380497376	-0.8290016	-0.339206496	-0.8290016	-0.339206496	0.310833952	-0.380497376
666000000	0.284991328	-0.37632336	-0.852390976	-0.288851424	-0.852390976	-0.288851424	0.284991328	-0.37632336
670000000	0.259620704	-0.372741632	-0.881449792	-0.240104592	-0.881449792	-0.240104592	0.259620704	-0.372741632
674000000	0.23474776	-0.362552544	-0.906095168	-0.19036352	-0.906095168	-0.19036352	0.23474776	-0.362552544
678000000	0.218690736	-0.361286112	-0.906551808	-0.144791776	-0.906551808	-0.144791776	0.218690736	-0.361286112
682000000	0.20110216	-0.355357312	-0.91088224	-0.09841484	-0.91088224	-0.09841484	0.20110216	-0.355357312
686000000	0.181746608	-0.34550464	-0.91964832	-0.053091228	-0.91964832	-0.053091228	0.181746608	-0.34550464
690000000	0.167741456	-0.341406496	-0.918846976	-0.008687944	-0.918846976	-0.008687944	0.167741456	-0.341406496
694000000	0.156215936	-0.3380312	-0.909485568	0.034357428	-0.909485568	0.034357428	0.156215936	-0.3380312
698000000	0.149475104	-0.329821632	-0.903055232	0.074118344	-0.903055232	0.074118344	0.149475104	-0.329821632
702000000	0.14145456	-0.323765248	-0.903704128	0.114535984	-0.903704128	0.114535984	0.14145456	-0.323765248
706000000	0.127261936	-0.319426528	-0.888963136	0.153599584	-0.888963136	0.153599584	0.127261936	-0.319426528
710000000	0.124011552	-0.315976576	-0.874741824	0.187447104	-0.874741824	0.187447104	0.124011552	-0.315976576
714000000	0.11030824	-0.312733568	-0.870972672	0.224574368	-0.870972672	0.224574368	0.11030824	-0.312733568
718000000	0.103718776	-0.310340576	-0.862487808	0.256699296	-0.862487808	0.256699296	0.103718776	-0.310340576
722000000	0.09811696	-0.306124928	-0.837560384	0.284078656	-0.837560384	0.284078656	0.09811696	-0.306124928
726000000	0.092967536	-0.30655248	-0.82280416	0.309742912	-0.82280416	0.309742912	0.092967536	-0.30655248
730000000	0.081367584	-0.306311232	-0.816093056	0.335085472	-0.816093056	0.335085472	0.081367584	-0.306311232
734000000	0.07686532	-0.306269632	-0.793148224	0.357213472	-0.793148224	0.357213472	0.07686532	-0.306269632
738000000	0.062899732	-0.311279328	-0.77774048	0.377649824	-0.77774048	0.377649824	0.062899732	-0.311279328
742000000	0.054408588	-0.31230704	-0.762718592	0.396649472	-0.762718592	0.396649472	0.054408588	-0.31230704
746000000	0.045316596	-0.306832544	-0.751247168	0.422822752	-0.751247168	0.422822752	0.045316596	-0.306832544
750000000	0.030529716	-0.309558688	-0.737076096	0.4393704	-0.737076096	0.4393704	0.030529716	-0.309558688
754000000	0.023319982	-0.310229728	-0.72355104	0.458436032	-0.72355104	0.458436032	0.023319982	-0.310229728
758000000	0.010161806	-0.314520736	-0.72019264	0.4782832	-0.72019264	0.4782832	0.010161806	-0.314520736
762000000	-0.003817391	-0.311997248	-0.710211392	0.502811552	-0.710211392	0.502811552	-0.003817391	-0.311997248
766000000	-0.010331526	-0.310577664	-0.690429504	0.513529536	-0.690429504	0.513529536	-0.010331526	-0.310577664
770000000	-0.028121396	-0.311370944	-0.686948416	0.532252736	-0.686948416	0.532252736	-0.028121396	-0.311370944
774000000	-0.034884012	-0.300078528	-0.677106112	0.556252608	-0.677106112	0.556252608	-0.034884012	-0.300078528
778000000	-0.047364388	-0.298002304	-0.66054592	0.572544512	-0.66054592	0.572544512	-0.047364388	-0.298002304
782000000	-0.060987036	-0.293521696	-0.644244672	0.590611904	-0.644244672	0.590611904	-0.060987036	-0.293521696
786000000	-0.077212808	-0.291081632	-0.639124288	0.608793856	-0.639124288	0.608793856	-0.077212808	-0.291081632
790000000	-0.09008652	-0.281884544	-0.631920768	0.635552576	-0.631920768	0.635552576	-0.09008652	-0.281884544
794000000	-0.102017144	-0.2750168	-0.6112288	0.64811328	-0.6112288	0.64811328	-0.102017144	-0.2750168
798000000	-0.120208136	-0.265116272	-0.602591424	0.667497152	-0.602591424	0.667497152	-0.120208136	-0.265116272
802000000	-0.132720488	-0.253488336	-0.592937088	0.692988224	-0.592937088	0.692988224	-0.132720488	-0.253488336
806000000	-0.14414496	-0.237828192	-0.57643616	0.71851808	-0.57643616	0.71851808	-0.14414496	-0.237828192
810000000	-0.14950328	-0.23394312	-0.555408768	0.73341888	-0.555408768	0.73341888	-0.14950328	-0.23394312
814000000	-0.162956928	-0.225680192	-0.547258496	0.759931776	-0.547258496	0.759931776	-0.162956928	-0.225680192
818000000	-0.17533936	-0.2094428	-0.53364016	0.797883072	-0.53364016	0.797883072	-0.17533936	-0.2094428
822000000	-0.176495168	-0.194115088	-0.498178944	0.811494592	-0.498178944	0.811494592	-0.176495168	-0.194115088
826000000	-0.183534608	-0.189112112	-0.48056352	0.824885952	-0.48056352	0.824885952	-0.183534608	-0.189112112
830000000	-0.191288944	-0.169174848	-0.456500736	0.854860992	-0.456500736	0.854860992	-0.191288944	-0.169174848
834000000	-0.191142656	-0.153841104	-0.426282656	0.876419328	-0.426282656	0.876419328	-0.191142656	-0.153841104
838000000	-0.202909712	-0.147481552	-0.406790912	0.881518336	-0.406790912	0.881518336	-0.202909712	-0.147481552
842000000	-0.203343536	-0.13137668	-0.377765984	0.89560032	-0.377765984	0.89560032	-0.203343536	-0.13137668
846000000	-0.210806992	-0.120500016	-0.36183408	0.917391616	-0.36183408	0.917391616	-0.210806992	-0.120500016
850000000	-0.214182992	-0.114437168	-0.33237296	0.922281472	-0.33237296	0.922281472	-0.214182992	-0.114437168
