! Comments
# Hz S RI R 50
2000000000	0.597060288	-0.720416	-0.021016008	0.006147115	-0.021016008	0.006147115	0.597060288	-0.720416
2007000000	0.69944768	0.392875712	0.01483538	-0.003203274	0.01483538	-0.003203274	0.69944768	0.392875712
2014000000	-0.04570818	-0.286637632	-0.02918013	-0.034926524	-0.02918013	-0.034926524	-0.04570818	-0.286637632
2021000000	0.213928992	-1.53727232	-0.018671782	-0.01690947	-0.018671782	-0.01690947	0.213928992	-1.53727232
2028000000	-0.321666016	-0.516260736	-0.033550866	-0.016452294	-0.033550866	-0.016452294	-0.321666016	-0.516260736
2035000000	0.400916288	-0.417692064	-0.001435203	-0.02887319	-0.001435203	-0.02887319	0.400916288	-0.417692064
2042000000	0.042730324	-0.48885568	-0.031740482	0.00904274	-0.031740482	0.00904274	0.042730324	-0.48885568
2049000000	-0.756494848	-0.18556208	-0.031606722	0.000880758	-0.031606722	0.000880758	-0.756494848	-0.18556208
2056000000	0.14978688	1.356171008	0.009907274	0.00160347	0.009907274	0.00160347	0.14978688	1.356171008
2063000000	-0.317732384	0.135824496	-0.007043166	-0.0304487	-0.007043166	-0.0304487	-0.317732384	0.135824496
2070000000	-0.704016064	0.105744088	0.003280461	-0.023764244	0.003280461	-0.023764244	-0.704016064	0.105744088
2077000000	-0.977782016	0.721630976	-0.005864777	0.028642646	-0.005864777	0.028642646	-0.977782016	0.721630976
2084000000	-0.156491456	0.068034496	0.010681082	-0.007506494	0.010681082	-0.007506494	-0.156491456	0.068034496
2091000000	0.344728	0.398602336	0.012892438	-0.02340361	0.012892438	-0.02340361	0.344728	0.398602336
2098000000	0.072176584	0.33172896	0.003192104	0.030977962	0.003192104	0.030977962	0.072176584	0.33172896
2105000000	-0.722393472	-0.165472128	-0.003375824	-0.060586972	-0.003375824	-0.060586972	-0.722393472	-0.165472128
2112000000	0.402363136	0.24060864	0.02202735	-0.040946328	0.02202735	-0.040946328	0.402363136	0.24060864
2119000000	-0.199621504	0.293486976	0.046291808	0.022028028	0.046291808	0.022028028	-0.199621504	0.293486976
2126000000	0.29829632	0.11142424	0.01712263	-0.072322384	0.01712263	-0.072322384	0.29829632	0.11142424
2133000000	-0.829751872	2.083584072	-0.024646728	0.057849856	-0.024646728	0.057849856	-0.829751872	2.083584072
2140000000	-0.468889184	0.052168588	0.04433214	0.019803054	0.04433214	0.019803054	-0.468889184	0.052168588
2147000000	0.08452516	0.171089696	0.065850256	-0.010564576	0.065850256	-0.010564576	0.08452516	0.171089696
2154000000	0.319954048	0.522746272	-0.042770296	0.026571302	-0.042770296	0.026571302	0.319954048	0.522746272
2161000000	0.027299948	0.203866112	-0.025102184	0.066103064	-0.025102184	0.066103064	0.027299948	0.203866112
2168000000	-0.259199712	0.183696368	-0.063162976	-0.014874592	-0.063162976	-0.014874592	-0.259199712	0.183696368
2175000000	-0.123073256	0.314696	0.023864422	0.042702564	0.023864422	0.042702564	-0.123073256	0.314696
2182000000	-0.170381792	-0.27378016	-0.065970564	-0.03400312	-0.065970564	-0.03400312	-0.170381792	-0.27378016
2189000000	0.575794496	0.147691552	0.012858764	0.056612644	0.012858764	0.056612644	0.575794496	0.147691552
2196000000	0.80065792	0.217184	-0.032353212	0.053860304	-0.032353212	0.053860304	0.80065792	0.217184
2203000000	-0.193942992	0.345465088	-0.02847352	0.070724224	-0.02847352	0.070724224	-0.193942992	0.345465088
2210000000	1.119163992	-0.014105334	-0.044753804	-0.04263014	-0.044753804	-0.04263014	1.119163992	-0.014105334
2217000000	1.227648976	0.447386816	0.06985904	0.01669661	0.06985904	0.01669661	1.227648976	0.447386816
2224000000	0.479507808	0.35853248	-0.061803408	0.015935022	-0.061803408	0.015935022	0.479507808	0.35853248
2231000000	0.746874304	0.200479536	0.015327982	-0.07208808	0.015327982	-0.07208808	0.746874304	0.200479536
2238000000	2.048264264	-1.195091008	0.011616414	-0.071312016	0.011616414	-0.071312016	2.048264264	-1.195091008
2245000000	1.022982358	0.029971716	-0.07813096	-0.012514938	-0.07813096	-0.012514938	1.022982358	0.029971716
2252000000	-0.380782272	-0.15145656	-0.068010456	0.019687422	-0.068010456	0.019687422	-0.380782272	-0.15145656
2259000000	0.559851392	-0.280248608	0.032484374	0.029879698	0.032484374	0.029879698	0.559851392	-0.280248608
2266000000	0.76123584	0.057404544	0.047467392	-0.045098308	0.047467392	-0.045098308	0.76123584	0.057404544
2273000000	0.753814336	-0.699570496	0.03548488	0.029300502	0.03548488	0.029300502	0.753814336	-0.699570496
2280000000	1.259020208	-0.334868576	-0.055197348	0.006808738	-0.055197348	0.006808738	1.259020208	-0.334868576
2287000000	-0.233402944	-1.668812864	-0.04100406	-0.092063992	-0.04100406	-0.092063992	-0.233402944	-1.668812864
2294000000	0.52570336	-0.781600768	-0.048963088	0.038248116	-0.048963088	0.038248116	0.52570336	-0.781600768
2301000000	-0.430519328	-0.256316576	0.027494098	-0.059248928	0.027494098	-0.059248928	-0.430519328	-0.256316576
2308000000	0.388533312	0.011653048	-0.036133424	0.075523328	-0.036133424	0.075523328	0.388533312	0.011653048
2315000000	1.024631738	0.234130304	-0.001157605	-0.065786244	-0.001157605	-0.065786244	1.024631738	0.234130304
2322000000	0.47058032	-0.125545456	0.023652924	0.03112981	0.023652924	0.03112981	0.47058032	-0.125545456
2329000000	0.282660928	-0.663965184	-0.071455648	-0.049947668	-0.071455648	-0.049947668	0.282660928	-0.663965184
2336000000	-0.955016768	-1.30103456	-0.067384032	0.008237168	-0.067384032	0.008237168	-0.955016768	-1.30103456
2343000000	0.527518048	0.087598248	-0.040933164	0.076315184	-0.040933164	0.076315184	0.527518048	0.087598248
2350000000	-0.43720208	0.412855808	0.05163654	-0.024168684	0.05163654	-0.024168684	-0.43720208	0.412855808
2357000000	0.02573207	0.336273984	0.081176088	0.062083536	0.081176088	0.062083536	0.02573207	0.336273984
2364000000	-0.531026848	-0.042926404	-0.061337624	0.010060522	-0.061337624	0.010060522	-0.531026848	-0.042926404
2371000000	-0.401575552	0.242322384	0.076083464	0.074952672	0.076083464	0.074952672	-0.401575552	0.242322384
2378000000	0.18936784	-0.374414144	0.045706148	-0.031632662	0.045706148	-0.031632662	0.18936784	-0.374414144
2385000000	-0.014052918	0.645202176	0.041027292	0.079512672	0.041027292	0.079512672	-0.014052918	0.645202176
2392000000	-0.118422144	-0.076813128	-0.038656888	-0.070656736	-0.038656888	-0.070656736	-0.118422144	-0.076813128
2399000000	-0.623218112	-0.882443456	0.097559016	0.074156568	0.097559016	0.074156568	-0.623218112	-0.882443456
2406000000	-1.322785248	-0.262699904	0.025783164	0.087336856	0.025783164	0.087336856	-1.322785248	-0.262699904
2413000000	0.55759904	-0.530752352	-0.119448584	-0.05936648	-0.119448584	-0.05936648	0.55759904	-0.530752352
2420000000	0.538006528	-0.675080704	0.086561896	-0.082237352	0.086561896	-0.082237352	0.538006528	-0.675080704
2427000000	-2.703129536	0.566805888	-0.121237808	-0.036858684	-0.121237808	-0.036858684	-2.703129536	0.566805888
2434000000	0.282072256	-0.239665984	-0.015706224	-0.164021136	-0.015706224	-0.164021136	0.282072256	-0.239665984
2441000000	1.290077568	-0.118883928	0.04017996	0.067702152	0.04017996	0.067702152	1.290077568	-0.118883928
2448000000	1.126034024	-0.54164288	0.076355408	0.096068064	0.076355408	0.096068064	1.126034024	-0.54164288
2455000000	2.216967584	-0.003845693	-0.136111072	-0.082340536	-0.136111072	-0.082340536	2.216967584	-0.003845693
2462000000	0.889849216	0.631504256	-0.067202832	0.096445984	-0.067202832	0.096445984	0.889849216	0.631504256
2469000000	-0.312339808	-0.999884992	-0.002539444	0.095886288	-0.002539444	0.095886288	-0.312339808	-0.999884992
2476000000	0.975343296	-0.111448232	-0.092566536	0.047629964	-0.092566536	0.047629964	0.975343296	-0.111448232
2483000000	0.234444928	0.04318502	-0.112890736	0.074372832	-0.112890736	0.074372832	0.234444928	0.04318502
2490000000	0.917424384	0.06738192	-0.000487656	-0.003170048	-0.000487656	-0.003170048	0.917424384	0.06738192
2497000000	1.183685536	0.082689568	0.09024144	0.021379826	0.09024144	0.021379826	1.183685536	0.082689568
2504000000	0.448886208	-0.831869952	0.104271472	-0.026710148	0.104271472	-0.026710148	0.448886208	-0.831869952
2511000000	0.584475968	-0.057589068	0.007564057	-0.042255452	0.007564057	-0.042255452	0.584475968	-0.057589068
2518000000	1.026930332	-1.148238304	-0.046536188	-0.120184632	-0.046536188	-0.120184632	1.026930332	-1.148238304
2525000000	0.188225888	0.302302624	0.046645208	0.101568	0.046645208	0.101568	0.188225888	0.302302624
2532000000	1.06473732	0.020048392	0.0438845	-0.09729872	0.0438845	-0.09729872	1.06473732	0.020048392
2539000000	0.322726016	-1.585761088	-0.058817172	0.096442896	-0.058817172	0.096442896	0.322726016	-1.585761088
2546000000	-0.612281472	-0.268435024	-0.00200483	-0.06315566	-0.00200483	-0.06315566	-0.612281472	-0.268435024
2553000000	1.233044512	-0.335452384	0.090513736	0.056681684	0.090513736	0.056681684	1.233044512	-0.335452384
2560000000	0.665450624	-0.333765952	-0.024351962	0.090468936	-0.024351962	0.090468936	0.665450624	-0.333765952
2567000000	0.941291712	0.287438144	0.060071824	-0.058416756	0.060071824	-0.058416756	0.941291712	0.287438144
2574000000	0.980585792	-0.007886838	0.05187792	0.073991904	0.05187792	0.073991904	0.980585792	-0.007886838
2581000000	2.982039232	0.934822528	-0.006462347	-0.106857736	-0.006462347	-0.106857736	2.982039232	0.934822528
2588000000	0.897783616	0.231774832	0.067915744	0.017445686	0.067915744	0.017445686	0.897783616	0.231774832
2595000000	0.442649984	0.011730912	0.064755404	0.05825328	0.064755404	0.05825328	0.442649984	0.011730912
2602000000	-0.610918016	1.06994212	0.077780168	-0.05686558	0.077780168	-0.05686558	-0.610918016	1.06994212
2609000000	0.660740288	-0.715550656	-0.08874956	-0.014931318	-0.08874956	-0.014931318	0.660740288	-0.715550656
2616000000	-0.826895808	2.22861696	-0.097935336	0.026519962	-0.097935336	0.026519962	-0.826895808	2.22861696
2623000000	1.959189312	0.815761856	-0.099615232	0.035129564	-0.099615232	0.035129564	1.959189312	0.815761856
2630000000	0.215737712	-0.021104454	0.09243308	0.069885856	0.09243308	0.069885856	0.215737712	-0.021104454
2637000000	-0.990635648	-0.251370912	-0.10535208	-0.009748142	-0.10535208	-0.009748142	-0.990635648	-0.251370912
2644000000	0.785870656	-0.001141638	0.061594164	0.049424276	0.061594164	0.049424276	0.785870656	-0.001141638
2651000000	0.68393056	0.110890072	0.079702824	0.117237016	0.079702824	0.117237016	0.68393056	0.110890072
2658000000	0.274938784	-0.093752064	0.03244852	-0.048076204	0.03244852	-0.048076204	0.274938784	-0.093752064
2665000000	1.435917504	-1.746719104	-0.103165248	-0.024552928	-0.103165248	-0.024552928	1.435917504	-1.746719104
2672000000	-0.98997664	-0.033862816	0.082826864	0.033732576	0.082826864	0.033732576	-0.98997664	-0.033862816
2679000000	-0.10613104	-0.199596656	0.009121182	-0.008158564	0.009121182	-0.008158564	-0.10613104	-0.199596656
2686000000	-0.324842112	0.221892512	-0.08773764	0.026692972	-0.08773764	0.026692972	-0.324842112	0.221892512
2693000000	-0.927711872	0.092370784	-0.046150632	0.102492536	-0.046150632	0.102492536	-0.927711872	0.092370784
2700000000	0.170156896	0.022768016	-0.009005122	-0.060460852	-0.009005122	-0.060460852	0.170156896	0.022768016
