! https://github.com/szoftveres 
# Hz S RI R 50
500000000.0	-0.12505243	0.30606127	0.87494757	0.30606127	0.87494757	0.30606127	-0.12505243	0.30606127	
510000000.0	-0.08009937	0.31164269	0.91201533	0.18630946	0.91201533	0.18630946	-0.08009937	0.31164269	
520000000.0	-0.03608298	0.31099153	0.93250018	0.06230165	0.93250018	0.06230165	-0.03608298	0.31099153	
530000000.0	0.00619056	0.30447294	0.93596704	-0.06365161	0.93596704	-0.06365161	0.00619056	0.30447294	
540000000.0	0.04599534	0.29254703	0.92230202	-0.18920664	0.92230202	-0.18920664	0.04599534	0.29254703	
550000000.0	0.08269537	0.27575455	0.89171237	-0.31203070	0.89171237	-0.31203070	0.08269537	0.27575455	
560000000.0	0.11575207	0.25470180	0.84472069	-0.42984530	0.84472069	-0.42984530	0.11575207	0.25470180	
570000000.0	0.14472941	0.23004515	0.78215340	-0.54046809	0.78215340	-0.54046809	0.14472941	0.23004515	
580000000.0	0.16929696	0.20247535	0.70512375	-0.64185258	0.70512375	-0.64185258	0.16929696	0.20247535	
590000000.0	0.18923061	0.17270204	0.61500990	-0.73212502	0.61500990	-0.73212502	0.18923061	0.17270204	
600000000.0	0.20441134	0.14143870	0.51342834	-0.80961782	0.51342834	-0.80961782	0.20441134	0.14143870	
610000000.0	0.21482192	0.10938828	0.40220324	-0.87289897	0.40220324	-0.87289897	0.21482192	0.10938828	
620000000.0	0.22054187	0.07722972	0.28333239	-0.92079701	0.28333239	-0.92079701	0.22054187	0.07722972	
630000000.0	0.22174075	0.04560564	0.15895023	-0.95242109	0.15895023	-0.95242109	0.22174075	0.04560564	
640000000.0	0.21867004	0.01511130	0.03128872	-0.96717595	0.03128872	-0.96717595	0.21867004	0.01511130	
650000000.0	0.21165376	-0.01371495	-0.09736323	-0.96477147	-0.09736323	-0.96477147	0.21165376	-0.01371495	
660000000.0	0.20107818	-0.04039966	-0.22470112	-0.94522671	-0.22470112	-0.94522671	0.20107818	-0.04039966	
670000000.0	0.18738064	-0.06454060	-0.34844616	-0.90886852	-0.34844616	-0.90886852	0.18738064	-0.06454060	
680000000.0	0.17103801	-0.08581141	-0.46638598	-0.85632465	-0.46638598	-0.85632465	0.17103801	-0.08581141	
690000000.0	0.15255478	-0.10396447	-0.57641384	-0.78851157	-0.57641384	-0.78851157	0.15255478	-0.10396447	
700000000.0	0.13245117	-0.11883204	-0.67656583	-0.70661729	-0.67656583	-0.70661729	0.13245117	-0.11883204	
710000000.0	0.11125140	-0.13032582	-0.76505528	-0.61207949	-0.76505528	-0.61207949	0.11125140	-0.13032582	
720000000.0	0.08947244	-0.13843478	-0.84030405	-0.50655933	-0.84030405	-0.50655933	0.08947244	-0.13843478	
730000000.0	0.06761335	-0.14322158	-0.90096981	-0.39191146	-0.90096981	-0.39191146	0.06761335	-0.14322158	
740000000.0	0.04614547	-0.14481760	-0.94596923	-0.27015083	-0.94596923	-0.27015083	0.04614547	-0.14481760	
750000000.0	0.02550355	-0.14341672	-0.97449645	-0.14341672	-0.97449645	-0.14341672	0.02550355	-0.14341672	
760000000.0	0.00607801	-0.13926805	-0.98603669	-0.01393482	-0.98603669	-0.01393482	0.00607801	-0.13926805	
770000000.0	-0.01179148	-0.13266781	-0.98037464	0.11602208	-0.98037464	0.11602208	-0.01179148	-0.13266781	
780000000.0	-0.02782118	-0.12395044	-0.95759767	0.24417411	-0.95759767	0.24417411	-0.02782118	-0.12395044	
790000000.0	-0.04178705	-0.11347936	-0.91809373	0.36827431	-0.91809373	0.36827431	-0.04178705	-0.11347936	
800000000.0	-0.05352705	-0.10163733	-0.86254404	0.48614793	-0.86254404	0.48614793	-0.05352705	-0.10163733	
810000000.0	-0.06294200	-0.08881677	-0.79191063	0.59573034	-0.79191063	0.59573034	-0.06294200	-0.08881677	
820000000.0	-0.06999512	-0.07541027	-0.70741911	0.69510297	-0.70741911	0.69510297	-0.06999512	-0.07541027	
830000000.0	-0.07471012	-0.06180134	-0.61053691	0.78252658	-0.61053691	0.78252658	-0.07471012	-0.06180134	
840000000.0	-0.07716801	-0.04835572	-0.50294730	0.85647134	-0.50294730	0.85647134	-0.07716801	-0.04835572	
850000000.0	-0.07750280	-0.03541331	-0.38651980	0.91564321	-0.38651980	0.91564321	-0.07750280	-0.03541331	
860000000.0	-0.07589607	-0.02328103	-0.26327739	0.95900622	-0.26327739	0.95900622	-0.07589607	-0.02328103	
870000000.0	-0.07257062	-0.01222653	-0.13536114	0.98580019	-0.13536114	0.98580019	-0.07257062	-0.01222653	
880000000.0	-0.06778339	-0.00247308	-0.00499287	0.99555364	-0.00499287	0.99555364	-0.06778339	-0.00247308	
890000000.0	-0.06181774	0.00580448	0.12556357	0.98809173	0.12556357	0.98809173	-0.06181774	0.00580448	
900000000.0	-0.05497537	0.01248250	0.25404163	0.96353902	0.25404163	0.96353902	-0.05497537	0.01248250	
910000000.0	-0.04756792	0.01749001	0.37821137	0.92231707	0.37821137	0.92231707	-0.04756792	0.01749001	
920000000.0	-0.03990859	0.02080897	0.49591821	0.86513689	0.49591821	0.86513689	-0.03990859	0.02080897	
930000000.0	-0.03230385	0.02247323	0.60512014	0.79298648	0.60512014	0.79298648	-0.03230385	0.02247323	
940000000.0	-0.02504550	0.02256633	0.70392312	0.70711344	0.70392312	0.70711344	-0.02504550	0.02256633	
950000000.0	-0.01840318	0.02121805	0.79061381	0.60900330	0.79061381	0.60900330	-0.01840318	0.02121805	
960000000.0	-0.01261753	0.01860000	0.86368915	0.50035367	0.86368915	0.50035367	-0.01261753	0.01860000	
970000000.0	-0.00789417	0.01492015	0.92188232	0.38304471	0.92188232	0.38304471	-0.00789417	0.01492015	
980000000.0	-0.00439854	0.01041667	0.96418462	0.25910655	0.96418462	0.25910655	-0.00439854	0.01041667	
990000000.0	-0.00225184	0.00535090	0.98986286	0.13068413	0.98986286	0.13068413	-0.00225184	0.00535090	
1000000000.0	-0.00152799	0.00000000	0.99847201	0.00000000	0.99847201	0.00000000	-0.00152799	0.00000000	
1010000000.0	-0.00225184	-0.00535090	0.98986286	-0.13068413	0.98986286	-0.13068413	-0.00225184	-0.00535090	
1020000000.0	-0.00439854	-0.01041667	0.96418462	-0.25910655	0.96418462	-0.25910655	-0.00439854	-0.01041667	
1030000000.0	-0.00789417	-0.01492015	0.92188232	-0.38304471	0.92188232	-0.38304471	-0.00789417	-0.01492015	
1040000000.0	-0.01261753	-0.01860000	0.86368915	-0.50035367	0.86368915	-0.50035367	-0.01261753	-0.01860000	
1050000000.0	-0.01840318	-0.02121805	0.79061381	-0.60900330	0.79061381	-0.60900330	-0.01840318	-0.02121805	
1060000000.0	-0.02504550	-0.02256633	0.70392312	-0.70711344	0.70392312	-0.70711344	-0.02504550	-0.02256633	
1070000000.0	-0.03230385	-0.02247323	0.60512014	-0.79298648	0.60512014	-0.79298648	-0.03230385	-0.02247323	
1080000000.0	-0.03990859	-0.02080897	0.49591821	-0.86513689	0.49591821	-0.86513689	-0.03990859	-0.02080897	
1090000000.0	-0.04756792	-0.01749001	0.37821137	-0.92231707	0.37821137	-0.92231707	-0.04756792	-0.01749001	
1100000000.0	-0.05497537	-0.01248250	0.25404163	-0.96353902	0.25404163	-0.96353902	-0.05497537	-0.01248250	
1110000000.0	-0.06181774	-0.00580448	0.12556357	-0.98809173	0.12556357	-0.98809173	-0.06181774	-0.00580448	
1120000000.0	-0.06778339	0.00247308	-0.00499287	-0.99555364	-0.00499287	-0.99555364	-0.06778339	0.00247308	
1130000000.0	-0.07257062	0.01222653	-0.13536114	-0.98580019	-0.13536114	-0.98580019	-0.07257062	0.01222653	
1140000000.0	-0.07589607	0.02328103	-0.26327739	-0.95900622	-0.26327739	-0.95900622	-0.07589607	0.02328103	
1150000000.0	-0.07750280	0.03541331	-0.38651980	-0.91564321	-0.38651980	-0.91564321	-0.07750280	0.03541331	
1160000000.0	-0.07716801	0.04835572	-0.50294730	-0.85647134	-0.50294730	-0.85647134	-0.07716801	0.04835572	
1170000000.0	-0.07471012	0.06180134	-0.61053691	-0.78252658	-0.61053691	-0.78252658	-0.07471012	0.06180134	
1180000000.0	-0.06999512	0.07541027	-0.70741911	-0.69510297	-0.70741911	-0.69510297	-0.06999512	0.07541027	
1190000000.0	-0.06294200	0.08881677	-0.79191063	-0.59573034	-0.79191063	-0.59573034	-0.06294200	0.08881677	
1200000000.0	-0.05352705	0.10163733	-0.86254404	-0.48614793	-0.86254404	-0.48614793	-0.05352705	0.10163733	
1210000000.0	-0.04178705	0.11347936	-0.91809373	-0.36827431	-0.91809373	-0.36827431	-0.04178705	0.11347936	
1220000000.0	-0.02782118	0.12395044	-0.95759767	-0.24417411	-0.95759767	-0.24417411	-0.02782118	0.12395044	
1230000000.0	-0.01179148	0.13266781	-0.98037464	-0.11602208	-0.98037464	-0.11602208	-0.01179148	0.13266781	
1240000000.0	0.00607801	0.13926805	-0.98603669	0.01393482	-0.98603669	0.01393482	0.00607801	0.13926805	
1250000000.0	0.02550355	0.14341672	-0.97449645	0.14341672	-0.97449645	0.14341672	0.02550355	0.14341672	
1260000000.0	0.04614547	0.14481760	-0.94596923	0.27015083	-0.94596923	0.27015083	0.04614547	0.14481760	
1270000000.0	0.06761335	0.14322158	-0.90096981	0.39191146	-0.90096981	0.39191146	0.06761335	0.14322158	
1280000000.0	0.08947244	0.13843478	-0.84030405	0.50655933	-0.84030405	0.50655933	0.08947244	0.13843478	
1290000000.0	0.11125140	0.13032582	-0.76505528	0.61207949	-0.76505528	0.61207949	0.11125140	0.13032582	
1300000000.0	0.13245117	0.11883204	-0.67656583	0.70661729	-0.67656583	0.70661729	0.13245117	0.11883204	
1310000000.0	0.15255478	0.10396447	-0.57641384	0.78851157	-0.57641384	0.78851157	0.15255478	0.10396447	
1320000000.0	0.17103801	0.08581141	-0.46638598	0.85632465	-0.46638598	0.85632465	0.17103801	0.08581141	
1330000000.0	0.18738064	0.06454060	-0.34844616	0.90886852	-0.34844616	0.90886852	0.18738064	0.06454060	
1340000000.0	0.20107818	0.04039966	-0.22470112	0.94522671	-0.22470112	0.94522671	0.20107818	0.04039966	
1350000000.0	0.21165376	0.01371495	-0.09736323	0.96477147	-0.09736323	0.96477147	0.21165376	0.01371495	
1360000000.0	0.21867004	-0.01511130	0.03128872	0.96717595	0.03128872	0.96717595	0.21867004	-0.01511130	
1370000000.0	0.22174075	-0.04560564	0.15895023	0.95242109	0.15895023	0.95242109	0.22174075	-0.04560564	
1380000000.0	0.22054187	-0.07722972	0.28333239	0.92079701	0.28333239	0.92079701	0.22054187	-0.07722972	
1390000000.0	0.21482192	-0.10938828	0.40220324	0.87289897	0.40220324	0.87289897	0.21482192	-0.10938828	
1400000000.0	0.20441134	-0.14143870	0.51342834	0.80961782	0.51342834	0.80961782	0.20441134	-0.14143870	
1410000000.0	0.18923061	-0.17270204	0.61500990	0.73212502	0.61500990	0.73212502	0.18923061	-0.17270204	
1420000000.0	0.16929696	-0.20247535	0.70512375	0.64185258	0.70512375	0.64185258	0.16929696	-0.20247535	
1430000000.0	0.14472941	-0.23004515	0.78215340	0.54046809	0.78215340	0.54046809	0.14472941	-0.23004515	
1440000000.0	0.11575207	-0.25470180	0.84472069	0.42984530	0.84472069	0.42984530	0.11575207	-0.25470180	
1450000000.0	0.08269537	-0.27575455	0.89171237	0.31203070	0.89171237	0.31203070	0.08269537	-0.27575455	
1460000000.0	0.04599534	-0.29254703	0.92230202	0.18920664	0.92230202	0.18920664	0.04599534	-0.29254703	
1470000000.0	0.00619056	-0.30447294	0.93596704	0.06365161	0.93596704	0.06365161	0.00619056	-0.30447294	
1480000000.0	-0.03608298	-0.31099153	0.93250018	-0.06230165	0.93250018	-0.06230165	-0.03608298	-0.31099153	
1490000000.0	-0.08009937	-0.31164269	0.91201533	-0.18630946	0.91201533	-0.18630946	-0.08009937	-0.31164269	
1500000000.0	-0.12505243	-0.30606127	0.87494757	-0.30606127	0.87494757	-0.30606127	-0.12505243	-0.30606127	
1510000000.0	-0.17006764	-0.29399035	0.82204706	-0.41932358	0.82204706	-0.41932358	-0.17006764	-0.29399035	
1520000000.0	-0.21421602	-0.27529313	0.75436714	-0.52398302	0.75436714	-0.52398302	-0.21421602	-0.27529313	
1530000000.0	-0.25653005	-0.24996317	0.67324644	-0.61808772	0.67324644	-0.61808772	-0.25653005	-0.24996317	
1540000000.0	-0.29602130	-0.21813257	0.58028538	-0.69988625	0.58028538	-0.69988625	-0.29602130	-0.21813257	
1550000000.0	-0.33169961	-0.18007804	0.47731738	-0.76786329	0.47731738	-0.76786329	-0.33169961	-0.18007804	
1560000000.0	-0.36259356	-0.13622432	0.36637507	-0.82077142	0.36637507	-0.82077142	-0.36259356	-0.13622432	
1570000000.0	-0.38777186	-0.08714496	0.24965213	-0.85765820	0.24965213	-0.85765820	-0.38777186	-0.08714496	
1580000000.0	-0.40636547	-0.03356011	0.12946132	-0.87788804	0.12946132	-0.87788804	-0.40636547	-0.03356011	
1590000000.0	-0.41758995	0.02366875	0.00818934	-0.88115831	0.00818934	-0.88115831	-0.41758995	0.02366875	
1600000000.0	-0.42076768	0.08354737	-0.11175068	-0.86750915	-0.11175068	-0.86750915	-0.42076768	0.08354737	
1610000000.0	-0.41534952	0.14496059	-0.22796821	-0.83732666	-0.22796821	-0.83732666	-0.41534952	0.14496059	
1620000000.0	-0.40093556	0.20668751	-0.33814504	-0.79133922	-0.33814504	-0.79133922	-0.40093556	0.20668751	
1630000000.0	-0.37729425	0.26742009	-0.44008477	-0.73060664	-0.44008477	-0.73060664	-0.37729425	0.26742009	
1640000000.0	-0.34437970	0.32578495	-0.53176102	-0.65650230	-0.53176102	-0.65650230	-0.34437970	0.32578495	
1650000000.0	-0.30234638	0.38036832	-0.61136337	-0.57068820	-0.61136337	-0.57068820	-0.30234638	0.38036832	
1660000000.0	-0.25156092	0.42974398	-0.67734021	-0.47508307	-0.67734021	-0.47508307	-0.25156092	0.42974398	
1670000000.0	-0.19261033	0.47250385	-0.72843713	-0.37182408	-0.72843713	-0.37182408	-0.19261033	0.47250385	
1680000000.0	-0.12630626	0.50729086	-0.76373025	-0.26322239	-0.76373025	-0.26322239	-0.12630626	0.50729086	
1690000000.0	-0.05368457	0.53283380	-0.78265320	-0.15171330	-0.78265320	-0.15171330	-0.05368457	0.53283380	
1700000000.0	0.02399996	0.54798354	-0.78501704	-0.03980172	-0.78501704	-0.03980172	0.02399996	0.54798354	
1710000000.0	0.10528459	0.55174990	-0.77102209	0.06999622	-0.77102209	0.06999622	0.10528459	0.55174990	
1720000000.0	0.18851541	0.54333870	-0.74126107	0.17521414	-0.74126107	0.17521414	0.18851541	0.54333870	
1730000000.0	0.27187051	0.52218790	-0.69671266	0.27349801	-0.69671266	0.27349801	0.27187051	0.52218790	
1740000000.0	0.35338959	0.48800198	-0.63872511	0.36266874	-0.63872511	0.36266874	0.35338959	0.48800198	
1750000000.0	0.43101050	0.44078344	-0.56898950	0.44078344	-0.56898950	0.44078344	0.43101050	0.44078344	
1760000000.0	0.50261235	0.38086022	-0.48950235	0.50619345	-0.48950235	0.50619345	0.50261235	0.38086022	
1770000000.0	0.56606538	0.30890765	-0.40251778	0.55759754	-0.40251778	0.55759754	0.56606538	0.30890765	
1780000000.0	0.61928692	0.22596349	-0.31048957	0.59408804	-0.31048957	0.59408804	0.61928692	0.22596349	
1790000000.0	0.66030294	0.13343452	-0.21600374	0.61518820	-0.21600374	0.61518820	0.66030294	0.13343452	
1800000000.0	0.68731411	0.03309313	-0.12170288	0.62087838	-0.12170288	0.62087838	0.68731411	0.03309313	
1810000000.0	0.69876488	-0.07293778	-0.03020375	0.61160933	-0.03020375	0.61160933	0.69876488	-0.07293778	
1820000000.0	0.69341378	-0.18221291	0.05598979	0.58830033	0.05598979	0.58830033	0.69341378	-0.18221291	
1830000000.0	0.67040258	-0.29200700	0.13457579	0.55232093	0.13457579	0.55232093	0.67040258	-0.29200700	
1840000000.0	0.62932139	-0.39937246	0.20354209	0.50545459	0.20354209	0.50545459	0.62932139	-0.39937246	
1850000000.0	0.57026626	-0.50121256	0.26124926	0.44984395	0.26124926	0.44984395	0.57026626	-0.50121256	
1860000000.0	0.49388575	-0.59436972	0.30650444	0.38791753	0.30650444	0.38791753	0.49388575	-0.59436972	
1870000000.0	0.40141217	-0.67572769	0.33862165	0.32229904	0.33862165	0.32229904	0.40141217	-0.67572769	
1880000000.0	0.29467344	-0.74232516	0.35746396	0.25570157	0.35746396	0.25570157	0.29467344	-0.74232516	
1890000000.0	0.17608188	-0.79147721	0.36346319	0.19081004	0.36346319	0.19081004	0.17608188	-0.79147721	
1900000000.0	0.04859645	-0.82089968	0.35761345	0.13015684	0.35761345	0.13015684	0.04859645	-0.82089968	
1910000000.0	-0.08434360	-0.82883022	0.34143569	0.07599683	0.34143569	0.07599683	-0.08434360	-0.82883022	
1920000000.0	-0.21891442	-0.81413911	0.31691238	0.03018882	0.31691238	0.03018882	-0.21891442	-0.81413911	
1930000000.0	-0.35103125	-0.77642178	0.28639274	-0.00590854	0.28639274	-0.00590854	-0.35103125	-0.77642178	
1940000000.0	-0.47649674	-0.71606551	0.25247189	-0.03151841	0.25247189	-0.03151841	-0.47649674	-0.71606551	
1950000000.0	-0.59116786	-0.63428293	0.21784913	-0.04649768	0.21784913	-0.04649768	-0.59116786	-0.63428293	
1960000000.0	-0.69113332	-0.53310679	0.18517336	-0.05135312	0.18517336	-0.05135312	-0.69113332	-0.53310679	
1970000000.0	-0.77289144	-0.41534255	0.15688505	-0.04721800	0.15688505	-0.04721800	-0.77289144	-0.41534255	
1980000000.0	-0.83351723	-0.28447818	0.13506594	-0.03578830	0.13506594	-0.03578830	-0.83351723	-0.28447818	
1990000000.0	-0.87080732	-0.14455420	0.12130738	-0.01922097	0.12130738	-0.01922097	-0.87080732	-0.14455420	
2000000000.0	-0.88339223	-0.00000000	0.11660777	-0.00000000	0.11660777	-0.00000000	-0.88339223	-0.00000000	
2010000000.0	-0.87080732	0.14455420	0.12130738	0.01922097	0.12130738	0.01922097	-0.87080732	0.14455420	
2020000000.0	-0.83351723	0.28447818	0.13506594	0.03578830	0.13506594	0.03578830	-0.83351723	0.28447818	
2030000000.0	-0.77289144	0.41534255	0.15688505	0.04721800	0.15688505	0.04721800	-0.77289144	0.41534255	
2040000000.0	-0.69113332	0.53310679	0.18517336	0.05135312	0.18517336	0.05135312	-0.69113332	0.53310679	
2050000000.0	-0.59116786	0.63428293	0.21784913	0.04649768	0.21784913	0.04649768	-0.59116786	0.63428293	
2060000000.0	-0.47649674	0.71606551	0.25247189	0.03151841	0.25247189	0.03151841	-0.47649674	0.71606551	
2070000000.0	-0.35103125	0.77642178	0.28639274	0.00590854	0.28639274	0.00590854	-0.35103125	0.77642178	
2080000000.0	-0.21891442	0.81413911	0.31691238	-0.03018882	0.31691238	-0.03018882	-0.21891442	0.81413911	
2090000000.0	-0.08434360	0.82883022	0.34143569	-0.07599683	0.34143569	-0.07599683	-0.08434360	0.82883022	
2100000000.0	0.04859645	0.82089968	0.35761345	-0.13015684	0.35761345	-0.13015684	0.04859645	0.82089968	
2110000000.0	0.17608188	0.79147721	0.36346319	-0.19081004	0.36346319	-0.19081004	0.17608188	0.79147721	
2120000000.0	0.29467344	0.74232516	0.35746396	-0.25570157	0.35746396	-0.25570157	0.29467344	0.74232516	
2130000000.0	0.40141217	0.67572769	0.33862165	-0.32229904	0.33862165	-0.32229904	0.40141217	0.67572769	
2140000000.0	0.49388575	0.59436972	0.30650444	-0.38791753	0.30650444	-0.38791753	0.49388575	0.59436972	
2150000000.0	0.57026626	0.50121256	0.26124926	-0.44984395	0.26124926	-0.44984395	0.57026626	0.50121256	
2160000000.0	0.62932139	0.39937246	0.20354209	-0.50545459	0.20354209	-0.50545459	0.62932139	0.39937246	
2170000000.0	0.67040258	0.29200700	0.13457579	-0.55232093	0.13457579	-0.55232093	0.67040258	0.29200700	
2180000000.0	0.69341378	0.18221291	0.05598979	-0.58830033	0.05598979	-0.58830033	0.69341378	0.18221291	
2190000000.0	0.69876488	0.07293778	-0.03020375	-0.61160933	-0.03020375	-0.61160933	0.69876488	0.07293778	
2200000000.0	0.68731411	-0.03309313	-0.12170288	-0.62087838	-0.12170288	-0.62087838	0.68731411	-0.03309313	
2210000000.0	0.66030294	-0.13343452	-0.21600374	-0.61518820	-0.21600374	-0.61518820	0.66030294	-0.13343452	
2220000000.0	0.61928692	-0.22596349	-0.31048957	-0.59408804	-0.31048957	-0.59408804	0.61928692	-0.22596349	
2230000000.0	0.56606538	-0.30890765	-0.40251778	-0.55759754	-0.40251778	-0.55759754	0.56606538	-0.30890765	
2240000000.0	0.50261235	-0.38086022	-0.48950235	-0.50619345	-0.48950235	-0.50619345	0.50261235	-0.38086022	
2250000000.0	0.43101050	-0.44078344	-0.56898950	-0.44078344	-0.56898950	-0.44078344	0.43101050	-0.44078344	
2260000000.0	0.35338959	-0.48800198	-0.63872511	-0.36266874	-0.63872511	-0.36266874	0.35338959	-0.48800198	
2270000000.0	0.27187051	-0.52218790	-0.69671266	-0.27349801	-0.69671266	-0.27349801	0.27187051	-0.52218790	
2280000000.0	0.18851541	-0.54333870	-0.74126107	-0.17521414	-0.74126107	-0.17521414	0.18851541	-0.54333870	
2290000000.0	0.10528459	-0.55174990	-0.77102209	-0.06999622	-0.77102209	-0.06999622	0.10528459	-0.55174990	
2300000000.0	0.02399996	-0.54798354	-0.78501704	0.03980172	-0.78501704	0.03980172	0.02399996	-0.54798354	
2310000000.0	-0.05368457	-0.53283380	-0.78265320	0.15171330	-0.78265320	0.15171330	-0.05368457	-0.53283380	
2320000000.0	-0.12630626	-0.50729086	-0.76373025	0.26322239	-0.76373025	0.26322239	-0.12630626	-0.50729086	
2330000000.0	-0.19261033	-0.47250385	-0.72843713	0.37182408	-0.72843713	0.37182408	-0.19261033	-0.47250385	
2340000000.0	-0.25156092	-0.42974398	-0.67734021	0.47508307	-0.67734021	0.47508307	-0.25156092	-0.42974398	
2350000000.0	-0.30234638	-0.38036832	-0.61136337	0.57068820	-0.61136337	0.57068820	-0.30234638	-0.38036832	
2360000000.0	-0.34437970	-0.32578495	-0.53176102	0.65650230	-0.53176102	0.65650230	-0.34437970	-0.32578495	
2370000000.0	-0.37729425	-0.26742009	-0.44008477	0.73060664	-0.44008477	0.73060664	-0.37729425	-0.26742009	
