! https://github.com/szoftveres 
# Hz S RI R 50
500000000.0	-0.69420399	0.61870951	-0.13586589	-0.34178915	-0.13586589	-0.34178915	-0.92951894	0.02674269	
510000000.0	-0.66223733	0.65330675	-0.14483506	-0.33712729	-0.14483506	-0.33712729	-0.92974703	0.03063421	
520000000.0	-0.62874678	0.68595549	-0.15369617	-0.33244554	-0.15369617	-0.33244554	-0.92987022	0.03462407	
530000000.0	-0.59384135	0.71661684	-0.16246810	-0.32774513	-0.16246810	-0.32774513	-0.92988613	0.03871734	
540000000.0	-0.55762779	0.74525579	-0.17116981	-0.32302624	-0.17116981	-0.32302624	-0.92979183	0.04291961	
550000000.0	-0.52021061	0.77184085	-0.17982044	-0.31828799	-0.17982044	-0.31828799	-0.92958379	0.04723706	
560000000.0	-0.48169219	0.79634360	-0.18843933	-0.31352851	-0.18843933	-0.31352851	-0.92925779	0.05167645	
570000000.0	-0.44217291	0.81873838	-0.19704615	-0.30874486	-0.19704615	-0.30874486	-0.92880886	0.05624519	
580000000.0	-0.40175126	0.83900191	-0.20566099	-0.30393301	-0.20566099	-0.30393301	-0.92823123	0.06095136	
590000000.0	-0.36052397	0.85711293	-0.21430441	-0.29908779	-0.21430441	-0.29908779	-0.92751818	0.06580377	
600000000.0	-0.31858618	0.87305190	-0.22299763	-0.29420280	-0.22299763	-0.29420280	-0.92666198	0.07081198	
610000000.0	-0.27603164	0.88680061	-0.23176259	-0.28927033	-0.23176259	-0.28927033	-0.92565374	0.07598639	
620000000.0	-0.23295284	0.89834190	-0.24062208	-0.28428122	-0.24062208	-0.28428122	-0.92448325	0.08133829	
630000000.0	-0.18944131	0.90765929	-0.24959996	-0.27922474	-0.24959996	-0.27922474	-0.92313882	0.08687991	
640000000.0	-0.14558785	0.91473663	-0.25872120	-0.27408834	-0.25872120	-0.27408834	-0.92160708	0.09262455	
650000000.0	-0.10148278	0.91955771	-0.26801217	-0.26885748	-0.26801217	-0.26885748	-0.91987272	0.09858659	
660000000.0	-0.05721635	0.92210592	-0.27750074	-0.26351529	-0.27750074	-0.26351529	-0.91791821	0.10478163	
670000000.0	-0.01287911	0.92236380	-0.28721653	-0.25804228	-0.28721653	-0.25804228	-0.91572348	0.11122656	
680000000.0	0.03143762	0.92031263	-0.29719110	-0.25241592	-0.29719110	-0.25241592	-0.91326551	0.11793966	
690000000.0	0.07564122	0.91593193	-0.30745824	-0.24661009	-0.30745824	-0.24661009	-0.91051783	0.12494070	
700000000.0	0.11963702	0.90919899	-0.31805416	-0.24059455	-0.31805416	-0.24059455	-0.90744999	0.13225100	
710000000.0	0.16332759	0.90008826	-0.32901782	-0.23433415	-0.32901782	-0.23433415	-0.90402687	0.13989356	
720000000.0	0.20661169	0.88857083	-0.34039116	-0.22778796	-0.34039116	-0.22778796	-0.90020783	0.14789307	
730000000.0	0.24938310	0.87461370	-0.35221943	-0.22090816	-0.35221943	-0.22090816	-0.89594580	0.15627598	
740000000.0	0.29152914	0.85817919	-0.36455142	-0.21363874	-0.36455142	-0.21363874	-0.89118601	0.16507045	
750000000.0	0.33292888	0.83922411	-0.37743973	-0.20591382	-0.37743973	-0.20591382	-0.88586459	0.17430625	
760000000.0	0.37345084	0.81769913	-0.39094095	-0.19765568	-0.39094095	-0.19765568	-0.87990685	0.18401452	
770000000.0	0.41295026	0.79354798	-0.40511571	-0.18877222	-0.40511571	-0.18877222	-0.87322507	0.19422741	
780000000.0	0.45126550	0.76670680	-0.42002855	-0.17915394	-0.42002855	-0.17915394	-0.86571599	0.20497733	
790000000.0	0.48821370	0.73710370	-0.43574755	-0.16867005	-0.43574755	-0.16867005	-0.85725757	0.21629595	
800000000.0	0.52358514	0.70465850	-0.45234339	-0.15716379	-0.45234339	-0.15716379	-0.84770516	0.22821253	
810000000.0	0.55713627	0.66928310	-0.46988776	-0.14444651	-0.46988776	-0.14444651	-0.83688675	0.24075149	
820000000.0	0.58858082	0.63088273	-0.48845064	-0.13029033	-0.48845064	-0.13029033	-0.82459724	0.25392872	
830000000.0	0.61757848	0.58935862	-0.50809596	-0.11441911	-0.50809596	-0.11441911	-0.81059158	0.26774625	
840000000.0	0.64372084	0.54461302	-0.52887465	-0.09649736	-0.52887465	-0.09649736	-0.79457655	0.28218430	
850000000.0	0.66651362	0.49655790	-0.55081403	-0.07611674	-0.55081403	-0.07611674	-0.77620125	0.29718978	
860000000.0	0.68535478	0.44512928	-0.57390156	-0.05278015	-0.57390156	-0.05278015	-0.75504654	0.31265953	
870000000.0	0.69950822	0.39031041	-0.59806026	-0.02588347	-0.59806026	-0.02588347	-0.73061401	0.32841611	
880000000.0	0.70807306	0.33216827	-0.62311207	0.00530373	-0.62311207	0.00530373	-0.70231626	0.34417306	
890000000.0	0.70995078	0.27091004	-0.64872370	0.04165590	-0.64872370	0.04165590	-0.66947176	0.35948563	
900000000.0	0.70381497	0.20696884	-0.67432818	0.08420146	-0.67432818	0.08420146	-0.63131071	0.37368222	
910000000.0	0.68809524	0.14113050	-0.69901411	0.13411337	-0.69901411	0.13411337	-0.58700335	0.38577187	
920000000.0	0.66099734	0.07471405	-0.72137568	0.19265893	-0.72137568	0.19265893	-0.53573010	0.39432592	
930000000.0	0.62059992	0.00981417	-0.73932418	0.26107313	-0.73932418	0.26107313	-0.47682371	0.39734082	
940000000.0	0.56509311	-0.05040570	-0.74988234	0.34030209	-0.74988234	0.34030209	-0.41002515	0.39211011	
950000000.0	0.49324943	-0.10142884	-0.74902833	0.43055051	-0.74902833	0.43055051	-0.33589709	0.37517457	
960000000.0	0.40521504	-0.13726272	-0.73173634	0.53058614	-0.73173634	0.53058614	-0.25640801	0.34248389	
970000000.0	0.30361973	-0.15076721	-0.69245871	0.63685575	-0.69245871	0.63685575	-0.17559599	0.28996852	
980000000.0	0.19474212	-0.13481714	-0.62632788	0.74270669	-0.62632788	0.74270669	-0.10001094	0.21470437	
990000000.0	0.08903302	-0.08451652	-0.53113546	0.83834671	-0.53113546	0.83834671	-0.03838678	0.11660349	
1000000000.0	0.00000000	-0.00000000	-0.40951098	0.91230519	-0.40951098	0.91230519	-0.00000000	0.00000000	
1010000000.0	-0.05905090	0.11165830	-0.26994945	0.95455367	-0.26994945	0.95455367	0.00817252	-0.12604680	
1020000000.0	-0.07935889	0.23720147	-0.12537314	0.96006208	-0.12537314	0.96006208	-0.01578477	-0.24962614	
1030000000.0	-0.05966136	0.36091182	0.01057443	0.93062955	0.01057443	0.93062955	-0.06784673	-0.35946299	
1040000000.0	-0.00589242	0.46930225	0.12746367	0.87376982	0.12746367	0.87376982	-0.13971544	-0.44806129	
1050000000.0	0.07184459	0.55413280	0.22009103	0.79958435	0.22009103	0.79958435	-0.22184785	-0.51284338	
1060000000.0	0.16285617	0.61273358	0.28809893	0.71765900	0.28809893	0.71765900	-0.30602591	-0.55525914	
1070000000.0	0.25825264	0.64650308	0.33426064	0.63530242	0.33426064	0.63530242	-0.38654115	-0.57900483	
1080000000.0	0.35179436	0.65897820	0.36268393	0.55717935	0.36268393	0.55717935	-0.46017802	-0.58842818	
1090000000.0	0.43970022	0.65433434	0.37757033	0.48574781	0.37757033	0.48574781	-0.52561509	-0.58755297	
1100000000.0	0.52004199	0.63651801	0.38258822	0.42193295	0.38258822	0.42193295	-0.58273716	-0.57966908	
1110000000.0	0.59211543	0.60887577	0.38067225	0.36572975	0.38067225	0.36572975	-0.63208600	-0.56727214	
1120000000.0	0.65594505	0.57407681	0.37404811	0.31663847	0.37404811	0.31663847	-0.67449445	-0.55216422	
1130000000.0	0.71194478	0.53417406	0.36434662	0.27394205	0.36434662	0.27394205	-0.71087139	-0.53560168	
1140000000.0	0.76070566	0.49071282	0.35273498	0.23686678	0.35273498	0.23686678	-0.74208903	-0.51843614	
1150000000.0	0.80287216	0.44484206	0.34003412	0.20466714	0.34003412	0.20466714	-0.76893226	-0.50122983	
1160000000.0	0.83907530	0.39741087	0.32681294	0.17666504	0.32681294	0.17666504	-0.79208250	-0.48434293	
1170000000.0	0.86989998	0.34904548	0.31345991	0.15226345	0.31345991	0.15226345	-0.81211919	-0.46799695	
1180000000.0	0.89587194	0.30020827	0.30023559	0.13094673	0.30023559	0.13094673	-0.82952915	-0.45231951	
1190000000.0	0.91745551	0.25124185	0.28731061	0.11227440	0.28731061	0.11227440	-0.84471877	-0.43737545	
1200000000.0	0.93505673	0.20240147	0.27479267	0.09587257	0.27479267	0.09587257	-0.85802630	-0.42318826	
1210000000.0	0.94902898	0.15387876	0.26274576	0.08142479	0.26274576	0.08142479	-0.86973313	-0.40975474	
1220000000.0	0.95967933	0.10581896	0.25120364	0.06866343	0.25120364	0.06866343	-0.88007356	-0.39705490	
1230000000.0	0.96727486	0.05833347	0.24017940	0.05736204	0.24017940	0.05736204	-0.88924308	-0.38505868	
1240000000.0	0.97204847	0.01150895	0.22967217	0.04732868	0.22967217	0.04732868	-0.89740528	-0.37373046	
1250000000.0	0.97420404	-0.03458602	0.21967182	0.03840028	0.21967182	0.03840028	-0.90469744	-0.36303203	
1260000000.0	0.97392091	-0.07989616	0.21016230	0.03043794	0.21016230	0.03043794	-0.91123522	-0.35292452	
1270000000.0	0.97135772	-0.12437594	0.20112393	0.02332300	0.20112393	0.02332300	-0.91711638	-0.34336969	
1280000000.0	0.96665568	-0.16798701	0.19253500	0.01695375	0.19253500	0.01695375	-0.92242390	-0.33433065	
1290000000.0	0.95994129	-0.21069635	0.18437291	0.01124271	0.18437291	0.01124271	-0.92722845	-0.32577237	
1300000000.0	0.95132867	-0.25247487	0.17661490	0.00611444	0.17661490	0.00611444	-0.93159043	-0.31766186	
1310000000.0	0.94092148	-0.29329646	0.16923858	0.00150362	0.16923858	0.00150362	-0.93556170	-0.30996830	
1320000000.0	0.92881458	-0.33313722	0.16222225	-0.00264646	0.16222225	-0.00264646	-0.93918691	-0.30266300	
1330000000.0	0.91509538	-0.37197500	0.15554510	-0.00638522	0.15554510	-0.00638522	-0.94250464	-0.29571938	
1340000000.0	0.89984496	-0.40978897	0.14918733	-0.00975583	0.14918733	-0.00975583	-0.94554837	-0.28911286	
1350000000.0	0.88313910	-0.44655942	0.14313024	-0.01279614	0.14313024	-0.01279614	-0.94834721	-0.28282073	
1360000000.0	0.86504903	-0.48226754	0.13735620	-0.01553942	0.13735620	-0.01553942	-0.95092657	-0.27682206	
1370000000.0	0.84564214	-0.51689532	0.13184866	-0.01801500	0.13184866	-0.01801500	-0.95330872	-0.27109753	
1380000000.0	0.82498256	-0.55042547	0.12659212	-0.02024882	0.12659212	-0.02024882	-0.95551320	-0.26562933	
1390000000.0	0.80313165	-0.58284140	0.12157207	-0.02226387	0.12157207	-0.02226387	-0.95755723	-0.26040105	
1400000000.0	0.78014841	-0.61412718	0.11677499	-0.02408056	0.11677499	-0.02408056	-0.95945600	-0.25539754	
1410000000.0	0.75608980	-0.64426753	0.11218821	-0.02571710	0.11218821	-0.02571710	-0.96122300	-0.25060482	
1420000000.0	0.73101108	-0.67324787	0.10779993	-0.02718975	0.10779993	-0.02718975	-0.96287018	-0.24600999	
1430000000.0	0.70496603	-0.70105429	0.10359914	-0.02851305	0.10359914	-0.02851305	-0.96440817	-0.24160111	
1440000000.0	0.67800716	-0.72767363	0.09957557	-0.02970006	0.09957557	-0.02970006	-0.96584649	-0.23736715	
1450000000.0	0.65018588	-0.75309345	0.09571960	-0.03076249	0.09571960	-0.03076249	-0.96719363	-0.23329790	
1460000000.0	0.62155268	-0.77730212	0.09202230	-0.03171093	0.09202230	-0.03171093	-0.96845720	-0.22938388	
1470000000.0	0.59215721	-0.80028878	0.08847527	-0.03255491	0.08847527	-0.03255491	-0.96964405	-0.22561633	
1480000000.0	0.56204843	-0.82204346	0.08507071	-0.03330306	0.08507071	-0.03330306	-0.97076033	-0.22198708	
1490000000.0	0.53127463	-0.84255701	0.08180130	-0.03396320	0.08180130	-0.03396320	-0.97181160	-0.21848858	
1500000000.0	0.49988358	-0.86182121	0.07866020	-0.03454241	0.07866020	-0.03454241	-0.97280289	-0.21511377	
1510000000.0	0.46792251	-0.87982877	0.07564098	-0.03504714	0.07564098	-0.03504714	-0.97373874	-0.21185610	
1520000000.0	0.43543821	-0.89657333	0.07273766	-0.03548328	0.07273766	-0.03548328	-0.97462328	-0.20870945	
1530000000.0	0.40247705	-0.91204951	0.06994459	-0.03585617	0.06994459	-0.03585617	-0.97546026	-0.20566812	
1540000000.0	0.36908499	-0.92625294	0.06725650	-0.03617071	0.06725650	-0.03617071	-0.97625309	-0.20272679	
1550000000.0	0.33530760	-0.93918026	0.06466841	-0.03643137	0.06466841	-0.03643137	-0.97700488	-0.19988048	
1560000000.0	0.30119011	-0.95082914	0.06217568	-0.03664225	0.06217568	-0.03664225	-0.97771849	-0.19712454	
1570000000.0	0.26677736	-0.96119829	0.05977390	-0.03680712	0.05977390	-0.03680712	-0.97839651	-0.19445460	
1580000000.0	0.23211385	-0.97028751	0.05745896	-0.03692942	0.05745896	-0.03692942	-0.97904132	-0.19186657	
1590000000.0	0.19724372	-0.97809763	0.05522697	-0.03701234	0.05522697	-0.03701234	-0.97965511	-0.18935663	
1600000000.0	0.16221073	-0.98463061	0.05307426	-0.03705879	0.05307426	-0.03705879	-0.98023989	-0.18692118	
1610000000.0	0.12705827	-0.98988947	0.05099738	-0.03707148	0.05099738	-0.03707148	-0.98079751	-0.18455682	
1620000000.0	0.09182934	-0.99387833	0.04899306	-0.03705289	0.04899306	-0.03705289	-0.98132967	-0.18226039	
1630000000.0	0.05656653	-0.99660241	0.04705822	-0.03700533	0.04705822	-0.03700533	-0.98183794	-0.18002887	
1640000000.0	0.02131202	-0.99806802	0.04518995	-0.03693091	0.04518995	-0.03693091	-0.98232377	-0.17785946	
1650000000.0	-0.01389245	-0.99828259	0.04338549	-0.03683161	0.04338549	-0.03683161	-0.98278851	-0.17574949	
1660000000.0	-0.04900562	-0.99725463	0.04164224	-0.03670926	0.04164224	-0.03670926	-0.98323339	-0.17369645	
1670000000.0	-0.08398668	-0.99499376	0.03995772	-0.03656554	0.03995772	-0.03656554	-0.98365957	-0.17169797	
1680000000.0	-0.11879535	-0.99151067	0.03832959	-0.03640203	0.03832959	-0.03640203	-0.98406812	-0.16975181	
1690000000.0	-0.15339185	-0.98681714	0.03675563	-0.03622018	0.03675563	-0.03622018	-0.98446002	-0.16785585	
1700000000.0	-0.18773699	-0.98092603	0.03523373	-0.03602136	0.03523373	-0.03602136	-0.98483621	-0.16600807	
1710000000.0	-0.22179211	-0.97385126	0.03376188	-0.03580683	0.03376188	-0.03580683	-0.98519754	-0.16420660	
1720000000.0	-0.25551918	-0.96560779	0.03233818	-0.03557776	0.03233818	-0.03557776	-0.98554482	-0.16244961	
1730000000.0	-0.28888079	-0.95621166	0.03096083	-0.03533526	0.03096083	-0.03533526	-0.98587878	-0.16073541	
1740000000.0	-0.32184018	-0.94567988	0.02962809	-0.03508034	0.02962809	-0.03508034	-0.98620013	-0.15906238	
1750000000.0	-0.35436127	-0.93403052	0.02833833	-0.03481397	0.02833833	-0.03481397	-0.98650953	-0.15742897	
1760000000.0	-0.38640867	-0.92128262	0.02708999	-0.03453704	0.02708999	-0.03453704	-0.98680757	-0.15583372	
1770000000.0	-0.41794773	-0.90745620	0.02588157	-0.03425038	0.02588157	-0.03425038	-0.98709483	-0.15427525	
1780000000.0	-0.44894456	-0.89257223	0.02471165	-0.03395477	0.02471165	-0.03395477	-0.98737185	-0.15275222	
1790000000.0	-0.47936603	-0.87665265	0.02357888	-0.03365094	0.02357888	-0.03365094	-0.98763912	-0.15126338	
1800000000.0	-0.50917982	-0.85972027	0.02248197	-0.03333958	0.02248197	-0.03333958	-0.98789713	-0.14980754	
1810000000.0	-0.53835445	-0.84179883	0.02141967	-0.03302134	0.02141967	-0.03302134	-0.98814630	-0.14838354	
1820000000.0	-0.56685927	-0.82291294	0.02039081	-0.03269680	0.02039081	-0.03269680	-0.98838706	-0.14699029	
1830000000.0	-0.59466452	-0.80308802	0.01939425	-0.03236653	0.01939425	-0.03236653	-0.98861980	-0.14562676	
1840000000.0	-0.62174134	-0.78235037	0.01842891	-0.03203107	0.01842891	-0.03203107	-0.98884489	-0.14429195	
1850000000.0	-0.64806176	-0.76072703	0.01749376	-0.03169091	0.01749376	-0.03169091	-0.98906267	-0.14298491	
1860000000.0	-0.67359878	-0.73824584	0.01658779	-0.03134651	0.01658779	-0.03134651	-0.98927348	-0.14170473	
1870000000.0	-0.69832635	-0.71493538	0.01571008	-0.03099832	0.01571008	-0.03099832	-0.98947761	-0.14045055	
1880000000.0	-0.72221941	-0.69082493	0.01485969	-0.03064675	0.01485969	-0.03064675	-0.98967537	-0.13922154	
1890000000.0	-0.74525389	-0.66594446	0.01403576	-0.03029218	0.01403576	-0.03029218	-0.98986702	-0.13801691	
1900000000.0	-0.76740673	-0.64032459	0.01323745	-0.02993497	0.01323745	-0.02993497	-0.99005283	-0.13683588	
1910000000.0	-0.78865592	-0.61399656	0.01246395	-0.02957548	0.01246395	-0.02957548	-0.99023305	-0.13567774	
1920000000.0	-0.80898050	-0.58699221	0.01171449	-0.02921402	0.01171449	-0.02921402	-0.99040790	-0.13454179	
1930000000.0	-0.82836058	-0.55934394	0.01098832	-0.02885090	0.01098832	-0.02885090	-0.99057762	-0.13342736	
1940000000.0	-0.84677733	-0.53108465	0.01028473	-0.02848640	0.01028473	-0.02848640	-0.99074241	-0.13233379	
1950000000.0	-0.86421304	-0.50224777	0.00960304	-0.02812079	0.00960304	-0.02812079	-0.99090246	-0.13126049	
1960000000.0	-0.88065111	-0.47286716	0.00894258	-0.02775433	0.00894258	-0.02775433	-0.99105797	-0.13020685	
1970000000.0	-0.89607604	-0.44297712	0.00830272	-0.02738725	0.00830272	-0.02738725	-0.99120912	-0.12917231	
1980000000.0	-0.91047348	-0.41261235	0.00768284	-0.02701978	0.00768284	-0.02701978	-0.99135607	-0.12815632	
1990000000.0	-0.92383021	-0.38180788	0.00708235	-0.02665214	0.00708235	-0.02665214	-0.99149899	-0.12715836	
2000000000.0	-0.93613415	-0.35059908	0.00650069	-0.02628452	0.00650069	-0.02628452	-0.99163804	-0.12617791	
