! https://github.com/szoftveres 
# Hz S RI R 50
500000000.0	0.47099743	-0.66875277	-0.23702819	-0.52416486	-0.23702819	-0.52416486	0.81321562	0.08802957	
510000000.0	0.43797491	-0.69243728	-0.25135861	-0.51529354	-0.25135861	-0.51529354	0.81530074	0.08109326	
520000000.0	0.40384164	-0.71419601	-0.26546764	-0.50632294	-0.26546764	-0.50632294	0.81711810	0.07404074	
530000000.0	0.36870195	-0.73399277	-0.27938123	-0.49725207	-0.27938123	-0.49725207	0.81866660	0.06686939	
540000000.0	0.33265927	-0.75179478	-0.29312498	-0.48807803	-0.29312498	-0.48807803	0.81994408	0.05957587	
550000000.0	0.29581623	-0.76757244	-0.30672420	-0.47879596	-0.30672420	-0.47879596	0.82094727	0.05215623	
560000000.0	0.25827482	-0.78129899	-0.32020389	-0.46939906	-0.32020389	-0.46939906	0.82167166	0.04460586	
570000000.0	0.22013657	-0.79295026	-0.33358884	-0.45987854	-0.33358884	-0.45987854	0.82211141	0.03691955	
580000000.0	0.18150272	-0.80250446	-0.34690363	-0.45022352	-0.34690363	-0.45022352	0.82225929	0.02909155	
590000000.0	0.14247449	-0.80994198	-0.36017268	-0.44042100	-0.36017268	-0.44042100	0.82210651	0.02111554	
600000000.0	0.10315327	-0.81524512	-0.37342028	-0.43045567	-0.37342028	-0.43045567	0.82164262	0.01298471	
610000000.0	0.06364096	-0.81839801	-0.38667062	-0.42030984	-0.38667062	-0.42030984	0.82085532	0.00469179	
620000000.0	0.02404026	-0.81938638	-0.39994779	-0.40996316	-0.39994779	-0.40996316	0.81973029	-0.00377093	
630000000.0	-0.01554494	-0.81819748	-0.41327579	-0.39939248	-0.41327579	-0.39939248	0.81825101	-0.01241152	
640000000.0	-0.05500922	-0.81481996	-0.42667853	-0.38857154	-0.42667853	-0.38857154	0.81639851	-0.02123833	
650000000.0	-0.09424507	-0.80924378	-0.44017977	-0.37747070	-0.44017977	-0.37747070	0.81415107	-0.03025995	
660000000.0	-0.13314247	-0.80146020	-0.45380310	-0.36605653	-0.45380310	-0.36605653	0.81148401	-0.03948503	
670000000.0	-0.17158823	-0.79146175	-0.46757178	-0.35429142	-0.46757178	-0.35429142	0.80836924	-0.04892223	
680000000.0	-0.20946535	-0.77924233	-0.48150867	-0.34213311	-0.48150867	-0.34213311	0.80477495	-0.05857995	
690000000.0	-0.24665224	-0.76479731	-0.49563599	-0.32953409	-0.49563599	-0.32953409	0.80066512	-0.06846617	
700000000.0	-0.28302188	-0.74812376	-0.50997504	-0.31644101	-0.50997504	-0.31644101	0.79599903	-0.07858813	
710000000.0	-0.31844081	-0.72922077	-0.52454588	-0.30279390	-0.52454588	-0.30279390	0.79073069	-0.08895196	
720000000.0	-0.35276802	-0.70808988	-0.53936680	-0.28852538	-0.53936680	-0.28852538	0.78480821	-0.09956222	
730000000.0	-0.38585370	-0.68473579	-0.55445371	-0.27355969	-0.55445371	-0.27355969	0.77817307	-0.11042130	
740000000.0	-0.41753777	-0.65916715	-0.56981931	-0.25781162	-0.56981931	-0.25781162	0.77075930	-0.12152866	
750000000.0	-0.44764829	-0.63139774	-0.58547205	-0.24118536	-0.58547205	-0.24118536	0.76249265	-0.13287988	
760000000.0	-0.47599970	-0.60144801	-0.60141469	-0.22357313	-0.60141469	-0.22357313	0.75328956	-0.14446541	
770000000.0	-0.50239075	-0.56934705	-0.61764261	-0.20485381	-0.61764261	-0.20485381	0.74305619	-0.15626908	
780000000.0	-0.52660244	-0.53513518	-0.63414147	-0.18489134	-0.63414147	-0.18489134	0.73168729	-0.16826615	
790000000.0	-0.54839564	-0.49886730	-0.65088444	-0.16353314	-0.65088444	-0.16353314	0.71906514	-0.18042083	
800000000.0	-0.56750877	-0.46061719	-0.66782844	-0.14060857	-0.66782844	-0.14060857	0.70505854	-0.19268331	
810000000.0	-0.58365546	-0.42048299	-0.68490964	-0.11592735	-0.68490964	-0.11592735	0.68952189	-0.20498585	
820000000.0	-0.59652242	-0.37859421	-0.70203759	-0.08927847	-0.70203759	-0.08927847	0.67229471	-0.21723810	
830000000.0	-0.60576797	-0.33512048	-0.71908810	-0.06042954	-0.71908810	-0.06042954	0.65320160	-0.22932127	
840000000.0	-0.61102147	-0.29028258	-0.73589428	-0.02912715	-0.73589428	-0.02912715	0.63205316	-0.24108092	
850000000.0	-0.61188447	-0.24436596	-0.75223577	0.00490128	-0.75223577	0.00490128	0.60864827	-0.25231848	
860000000.0	-0.60793462	-0.19773721	-0.76782567	0.04194318	-0.76782567	0.04194318	0.58277839	-0.26278100	
870000000.0	-0.59873353	-0.15086363	-0.78229545	0.08229317	-0.78229545	0.08229317	0.55423487	-0.27214955	
880000000.0	-0.58384059	-0.10433569	-0.79517772	0.12624034	-0.79517772	0.12624034	0.52282029	-0.28002627	
890000000.0	-0.56283513	-0.05889176	-0.80588796	0.17404874	-0.80588796	0.17404874	0.48836544	-0.28592100	
900000000.0	-0.53534978	-0.01544332	-0.81370651	0.22592884	-0.81370651	0.22592884	0.45075357	-0.28923883	
910000000.0	-0.50111822	0.02490268	-0.81776390	0.28199750	-0.81776390	0.28199750	0.40995349	-0.28927107	
920000000.0	-0.46004047	0.06082982	-0.81703415	0.34222463	-0.81703415	0.34222463	0.36606299	-0.28519360	
930000000.0	-0.41226702	0.09081501	-0.81034283	0.40636564	-0.81034283	0.40636564	0.31936250	-0.27607798	
940000000.0	-0.35830050	0.11315953	-0.79639909	0.47388201	-0.79639909	0.47388201	0.27037679	-0.26092283	
950000000.0	-0.29910705	0.12606250	-0.77386240	0.54385679	-0.77386240	0.54385679	0.21993810	-0.23871324	
960000000.0	-0.23622115	0.12775008	-0.74145369	0.61491943	-0.74145369	0.61491943	0.16923897	-0.20851544	
970000000.0	-0.17181645	0.11666869	-0.69811558	0.68520228	-0.69811558	0.68520228	0.11985590	-0.16960848	
980000000.0	-0.10870519	0.09173612	-0.64321405	0.75235852	-0.64321405	0.75235852	0.07372096	-0.12164520	
990000000.0	-0.05022696	0.05262178	-0.57675599	0.81367114	-0.57675599	0.81367114	0.03301902	-0.06481932	
1000000000.0	-0.00000000	0.00000000	-0.49957533	0.86627045	-0.49957533	0.86627045	0.00000000	-0.00000000	
1010000000.0	0.03845823	-0.06430002	-0.41342714	0.90744943	-0.41342714	0.90744943	-0.02328120	0.07121457	
1020000000.0	0.06218632	-0.13732121	-0.32093418	0.93502781	-0.32093418	0.93502781	-0.03525350	0.14656549	
1030000000.0	0.06921087	-0.21521941	-0.22536320	0.94768238	-0.22536320	0.94768238	-0.03507960	0.22333598	
1040000000.0	0.05884076	-0.29369057	-0.13026110	0.94515377	-0.13026110	0.94515377	-0.02279675	0.29865816	
1050000000.0	0.03174040	-0.36849102	-0.03903170	0.92826906	-0.03903170	0.92826906	0.00069456	0.36985484	
1060000000.0	-0.01023327	-0.43592481	0.04544471	0.89877673	0.04544471	0.89877673	0.03378970	0.43473373	
1070000000.0	-0.06437224	-0.49318914	0.12106514	0.85904826	0.12106514	0.85904826	0.07443753	0.49177065	
1080000000.0	-0.12753543	-0.53852449	0.18659548	0.81173161	0.18659548	0.81173161	0.12042517	0.54015896	
1090000000.0	-0.19654154	-0.57118059	0.24161582	0.75943792	0.24161582	0.75943792	0.16962603	0.57974378	
1100000000.0	-0.26846813	-0.59125310	0.28636837	0.70451245	0.28636837	0.70451245	0.22017332	0.61088384	
1110000000.0	-0.34083241	-0.59945953	0.32156478	0.64890495	0.32156478	0.64890495	0.27055083	0.63428755	
1120000000.0	-0.41166361	-0.59691184	0.34819840	0.59412726	0.34819840	0.59412726	0.31961385	0.65085917	
1130000000.0	-0.47949551	-0.58492179	0.36738834	0.54127291	0.36738834	0.54127291	0.36656260	0.66157486	
1140000000.0	-0.54331059	-0.56485393	0.38026530	0.49107223	0.38026530	0.49107223	0.41089001	0.66739476	
1150000000.0	-0.60246257	-0.53802666	0.38789738	0.44396147	0.38789738	0.44396147	0.45232094	0.66920819	
1160000000.0	-0.65659539	-0.50565341	0.39124863	0.40015200	0.39124863	0.40015200	0.49075372	0.66780511	
1170000000.0	-0.70556926	-0.46881421	0.39116123	0.35969174	0.39116123	0.35969174	0.52620951	0.66386617	
1180000000.0	-0.74939840	-0.42844757	0.38835339	0.32251569	0.38835339	0.32251569	0.55879157	0.65796448	
1190000000.0	-0.78820160	-0.38535504	0.38342654	0.28848539	0.38342654	0.28848539	0.58865403	0.65057413	
1200000000.0	-0.82216458	-0.34021284	0.37687723	0.25741830	0.37687723	0.25741830	0.61597910	0.64208186	
1210000000.0	-0.85151233	-0.29358641	0.36911085	0.22910901	0.36911085	0.22910901	0.64096102	0.63279950	
1220000000.0	-0.87648952	-0.24594578	0.36045534	0.20334392	0.36045534	0.20334392	0.66379515	0.62297608	
1230000000.0	-0.89734689	-0.19768019	0.35117390	0.17991107	0.35117390	0.17991107	0.68467104	0.61280867	
1240000000.0	-0.91433241	-0.14911133	0.34147632	0.15860638	0.34147632	0.15860638	0.70376812	0.60245197	
1250000000.0	-0.92768553	-0.10050493	0.33152867	0.13923739	0.33152867	0.13923739	0.72125345	0.59202631	
1260000000.0	-0.93763394	-0.05208065	0.32146153	0.12162519	0.32146153	0.12162519	0.73728068	0.58162445	
1270000000.0	-0.94439181	-0.00402038	0.31137677	0.10560519	0.31137677	0.10560519	0.75198994	0.57131706	
1280000000.0	-0.94815921	0.04352485	0.30135322	0.09102711	0.30135322	0.09102711	0.76550823	0.56115725	
1290000000.0	-0.94912224	0.09042923	0.29145116	0.07775446	0.29145116	0.07775446	0.77795015	0.55118421	
1300000000.0	-0.94745351	0.13658747	0.28171612	0.06566377	0.28171612	0.06566377	0.78941879	0.54142614	
1310000000.0	-0.94331304	0.18191107	0.27218183	0.05464364	0.27218183	0.05464364	0.80000671	0.53190260	
1320000000.0	-0.93684912	0.22632519	0.26287266	0.04459374	0.26287266	0.04459374	0.80979690	0.52262639	
1330000000.0	-0.92819937	0.26976623	0.25380554	0.03542382	0.25380554	0.03542382	0.81886370	0.51360504	
1340000000.0	-0.91749171	0.31217980	0.24499159	0.02705270	0.24499159	0.02705270	0.82727375	0.50484198	
1350000000.0	-0.90484531	0.35351908	0.23643728	0.01940743	0.23643728	0.01940743	0.83508672	0.49633752	
1360000000.0	-0.89037148	0.39374350	0.22814551	0.01242240	0.22814551	0.01242240	0.84235614	0.48808958	
1370000000.0	-0.87417452	0.43281776	0.22011638	0.00603860	0.22011638	0.00603860	0.84913002	0.48009429	
1380000000.0	-0.85635250	0.47071091	0.21234782	0.00020289	0.21234782	0.00020289	0.85545146	0.47234644	
1390000000.0	-0.83699786	0.50739569	0.20483615	-0.00513259	0.20483615	-0.00513259	0.86135922	0.46483988	
1400000000.0	-0.81619813	0.54284801	0.19757642	-0.01001099	0.19757642	-0.01001099	0.86688816	0.45756775	
1410000000.0	-0.79403638	0.57704646	0.19056280	-0.01447129	0.19056280	-0.01447129	0.87206972	0.45052281	
1420000000.0	-0.77059181	0.60997203	0.18378883	-0.01854868	0.18378883	-0.01854868	0.87693224	0.44369750	
1430000000.0	-0.74594009	0.64160776	0.17724756	-0.02227503	0.17724756	-0.02227503	0.88150131	0.43708416	
1440000000.0	-0.72015380	0.67193854	0.17093180	-0.02567919	0.17093180	-0.02567919	0.88580012	0.43067511	
1450000000.0	-0.69330275	0.70095098	0.16483420	-0.02878732	0.16483420	-0.02878732	0.88984963	0.42446273	
1460000000.0	-0.66545429	0.72863317	0.15894734	-0.03162320	0.15894734	-0.03162320	0.89366889	0.41843951	
1470000000.0	-0.63667355	0.75497468	0.15326386	-0.03420842	0.15326386	-0.03420842	0.89727519	0.41259812	
1480000000.0	-0.60702365	0.77996639	0.14777646	-0.03656265	0.14777646	-0.03656265	0.90068425	0.40693141	
1490000000.0	-0.57656598	0.80360047	0.14247797	-0.03870381	0.14247797	-0.03870381	0.90391040	0.40143247	
1500000000.0	-0.54536026	0.82587030	0.13736139	-0.04064827	0.13736139	-0.04064827	0.90696671	0.39609462	
1510000000.0	-0.51346479	0.84677044	0.13241991	-0.04241098	0.13241991	-0.04241098	0.90986512	0.39091142	
1520000000.0	-0.48093652	0.86629662	0.12764691	-0.04400559	0.12764691	-0.04400559	0.91261654	0.38587670	
1530000000.0	-0.44783119	0.88444568	0.12303601	-0.04544463	0.12303601	-0.04544463	0.91523097	0.38098450	
1540000000.0	-0.41420339	0.90121557	0.11858104	-0.04673959	0.11858104	-0.04673959	0.91771759	0.37622916	
1550000000.0	-0.38010670	0.91660536	0.11427605	-0.04790099	0.11427605	-0.04790099	0.92008480	0.37160522	
1560000000.0	-0.34559370	0.93061519	0.11011533	-0.04893854	0.11011533	-0.04893854	0.92234035	0.36710749	
1570000000.0	-0.31071608	0.94324630	0.10609338	-0.04986113	0.10609338	-0.04986113	0.92449137	0.36273099	
1580000000.0	-0.27552466	0.95450100	0.10220494	-0.05067697	0.10220494	-0.05067697	0.92654442	0.35847097	
1590000000.0	-0.24006940	0.96438269	0.09844495	-0.05139362	0.09844495	-0.05139362	0.92850556	0.35432290	
1600000000.0	-0.20439952	0.97289583	0.09480856	-0.05201808	0.09480856	-0.05201808	0.93038038	0.35028246	
1610000000.0	-0.16856342	0.98004596	0.09129113	-0.05255679	0.09129113	-0.05255679	0.93217407	0.34634552	
1620000000.0	-0.13260880	0.98583969	0.08788822	-0.05301571	0.08788822	-0.05301571	0.93389141	0.34250815	
1630000000.0	-0.09658258	0.99028470	0.08459558	-0.05340036	0.08459558	-0.05340036	0.93553685	0.33876658	
1640000000.0	-0.06053097	0.99338973	0.08140913	-0.05371586	0.08140913	-0.05371586	0.93711451	0.33511724	
1650000000.0	-0.02449948	0.99516458	0.07832497	-0.05396696	0.07832497	-0.05396696	0.93862821	0.33155670	
1660000000.0	0.01146712	0.99562010	0.07533939	-0.05415804	0.07533939	-0.05415804	0.94008152	0.32808172	
1670000000.0	0.04732479	0.99476821	0.07244881	-0.05429320	0.07244881	-0.05429320	0.94147775	0.32468918	
1680000000.0	0.08303020	0.99262184	0.06964981	-0.05437625	0.06964981	-0.05437625	0.94281999	0.32137610	
1690000000.0	0.11854076	0.98919498	0.06693914	-0.05441070	0.06693914	-0.05441070	0.94411111	0.31813965	
1700000000.0	0.15381460	0.98450265	0.06431365	-0.05439987	0.06431365	-0.05439987	0.94535380	0.31497713	
1710000000.0	0.18881064	0.97856088	0.06177037	-0.05434682	0.06177037	-0.05434682	0.94655058	0.31188595	
1720000000.0	0.22348854	0.97138668	0.05930641	-0.05425440	0.05930641	-0.05425440	0.94770378	0.30886365	
1730000000.0	0.25780875	0.96299809	0.05691904	-0.05412529	0.05691904	-0.05412529	0.94881561	0.30590785	
1740000000.0	0.29173251	0.95341411	0.05460563	-0.05396198	0.05460563	-0.05396198	0.94988812	0.30301631	
1750000000.0	0.32522186	0.94265472	0.05236365	-0.05376680	0.05236365	-0.05376680	0.95092325	0.30018686	
1760000000.0	0.35823970	0.93074082	0.05019070	-0.05354193	0.05019070	-0.05354193	0.95192280	0.29741744	
1770000000.0	0.39074973	0.91769427	0.04808445	-0.05328941	0.04808445	-0.05328941	0.95288848	0.29470608	
1780000000.0	0.42271654	0.90353783	0.04604269	-0.05301115	0.04604269	-0.05301115	0.95382187	0.29205089	
1790000000.0	0.45410560	0.88829517	0.04406329	-0.05270893	0.04406329	-0.05270893	0.95472450	0.28945005	
1800000000.0	0.48488327	0.87199080	0.04214420	-0.05238442	0.04214420	-0.05238442	0.95559776	0.28690184	
1810000000.0	0.51501683	0.85465012	0.04028347	-0.05203922	0.04028347	-0.05203922	0.95644299	0.28440459	
1820000000.0	0.54447449	0.83629935	0.03847922	-0.05167477	0.03847922	-0.05167477	0.95726145	0.28195670	
1830000000.0	0.57322542	0.81696550	0.03672963	-0.05129248	0.03672963	-0.05129248	0.95805433	0.27955666	
1840000000.0	0.60123976	0.79667639	0.03503298	-0.05089365	0.03503298	-0.05089365	0.95882273	0.27720299	
1850000000.0	0.62848864	0.77546058	0.03338759	-0.05047949	0.03338759	-0.05047949	0.95956773	0.27489429	
1860000000.0	0.65494419	0.75334738	0.03179186	-0.05005115	0.03179186	-0.05005115	0.96029031	0.27262921	
1870000000.0	0.68057957	0.73036677	0.03024425	-0.04960972	0.03024425	-0.04960972	0.96099142	0.27040647	
1880000000.0	0.70536896	0.70654944	0.02874327	-0.04915621	0.02874327	-0.04915621	0.96167196	0.26822480	
1890000000.0	0.72928764	0.68192673	0.02728750	-0.04869159	0.02728750	-0.04869159	0.96233276	0.26608302	
1900000000.0	0.75231190	0.65653058	0.02587557	-0.04821675	0.02587557	-0.04821675	0.96297465	0.26397997	
1910000000.0	0.77441917	0.63039352	0.02450616	-0.04773254	0.02450616	-0.04773254	0.96359837	0.26191455	
1920000000.0	0.79558795	0.60354867	0.02317798	-0.04723977	0.02317798	-0.04723977	0.96420465	0.25988571	
1930000000.0	0.81579785	0.57602964	0.02188982	-0.04673919	0.02188982	-0.04673919	0.96479417	0.25789241	
1940000000.0	0.83502962	0.54787056	0.02064049	-0.04623152	0.02064049	-0.04623152	0.96536759	0.25593367	
1950000000.0	0.85326514	0.51910601	0.01942886	-0.04571742	0.01942886	-0.04571742	0.96592551	0.25400854	
1960000000.0	0.87048741	0.48977101	0.01825382	-0.04519753	0.01825382	-0.04519753	0.96646855	0.25211611	
1970000000.0	0.88668064	0.45990098	0.01711432	-0.04467245	0.01711432	-0.04467245	0.96699724	0.25025550	
1980000000.0	0.90183016	0.42953170	0.01600933	-0.04414275	0.01600933	-0.04414275	0.96751213	0.24842586	
1990000000.0	0.91592249	0.39869927	0.01493786	-0.04360895	0.01493786	-0.04360895	0.96801371	0.24662637	
2000000000.0	0.92894533	0.36744010	0.01389897	-0.04307157	0.01389897	-0.04307157	0.96850249	0.24485625	
