! https://github.com/szoftveres 
# Hz S RI R 50
100000000.0	-0.20518919	0.96098706	0.10382781	0.00993054	0.10382781	0.00993054	-0.20518919	0.96098706	
110000000.0	-0.07279808	0.97878382	0.11458323	-0.00350343	0.11458323	-0.00350343	-0.07279808	0.97878382	
120000000.0	0.06064025	0.97833444	0.12343077	-0.01969229	0.12343077	-0.01969229	0.06064025	0.97833444	
130000000.0	0.19261174	0.95968388	0.12982122	-0.03834285	0.12982122	-0.03834285	0.19261174	0.95968388	
140000000.0	0.32063405	0.92322314	0.13325274	-0.05906411	0.13325274	-0.05906411	0.32063405	0.92322314	
150000000.0	0.44230406	0.86968143	0.13328707	-0.08137508	0.13328707	-0.08137508	0.44230406	0.86968143	
160000000.0	0.55534391	0.80011190	0.12956461	-0.10471515	0.12956461	-0.10471515	0.55534391	0.80011190	
170000000.0	0.65764452	0.71587105	0.12181772	-0.12845687	0.12181772	-0.12845687	0.65764452	0.71587105	
180000000.0	0.74730595	0.61859240	0.10988196	-0.15192084	0.10988196	-0.15192084	0.74730595	0.61859240	
190000000.0	0.82267366	0.51015473	0.09370503	-0.17439237	0.09370503	-0.17439237	0.82267366	0.51015473	
200000000.0	0.88237003	0.39264563	0.07335303	-0.19513963	0.07335303	-0.19513963	0.88237003	0.39264563	
210000000.0	0.92532052	0.26832101	0.04901384	-0.21343267	0.04901384	-0.21343267	0.92532052	0.26832101	
220000000.0	0.95077400	0.13956139	0.02099752	-0.22856316	0.02099752	-0.22856316	0.95077400	0.13956139	
230000000.0	0.95831675	0.00882574	-0.01026641	-0.23986415	-0.01026641	-0.23986415	0.95831675	0.00882574	
240000000.0	0.94787996	-0.12139618	-0.04423475	-0.24672941	-0.04423475	-0.24672941	0.94787996	-0.12139618	
250000000.0	0.91974049	-0.24863206	-0.08025951	-0.24863206	-0.08025951	-0.24863206	0.91974049	-0.24863206	
260000000.0	0.87451498	-0.37047495	-0.11759972	-0.24514171	-0.11759972	-0.24514171	0.87451498	-0.37047495	
270000000.0	0.81314721	-0.48462986	-0.15543595	-0.23593998	-0.15543595	-0.23593998	0.81314721	-0.48462986	
280000000.0	0.73688923	-0.58895825	-0.19288726	-0.22083370	-0.19288726	-0.22083370	0.73688923	-0.58895825	
290000000.0	0.64727632	-0.68151934	-0.22903036	-0.19976567	-0.22903036	-0.19976567	0.64727632	-0.68151934	
300000000.0	0.54609655	-0.76060766	-0.26292044	-0.17282240	-0.26292044	-0.17282240	0.54609655	-0.76060766	
310000000.0	0.43535524	-0.82478589	-0.29361339	-0.14023878	-0.29361339	-0.14023878	0.43535524	-0.82478589	
320000000.0	0.31723524	-0.87291252	-0.32018875	-0.10239927	-0.32018875	-0.10239927	0.31723524	-0.87291252	
330000000.0	0.19405367	-0.90416362	-0.34177312	-0.05983569	-0.34177312	-0.05983569	0.19405367	-0.90416362	
340000000.0	0.06821606	-0.91804835	-0.35756324	-0.01322129	-0.35756324	-0.01322129	0.06821606	-0.91804835	
350000000.0	-0.05783141	-0.91441791	-0.36684840	0.03663860	-0.36684840	0.03663860	-0.05783141	-0.91441791	
360000000.0	-0.18165028	-0.89346771	-0.36903160	0.08881954	-0.36903160	0.08881954	-0.18165028	-0.89346771	
370000000.0	-0.30085825	-0.85573264	-0.36364877	0.14229409	-0.36364877	0.14229409	-0.30085825	-0.85573264	
380000000.0	-0.41317637	-0.80207560	-0.35038585	0.19595113	-0.35038585	0.19595113	-0.41317637	-0.80207560	
390000000.0	-0.51647425	-0.73366954	-0.32909294	0.24861771	-0.32909294	0.24861771	-0.51647425	-0.73366954	
400000000.0	-0.60881235	-0.65197313	-0.29979536	0.29908339	-0.29979536	0.29908339	-0.60881235	-0.65197313	
410000000.0	-0.68848035	-0.55870076	-0.26270106	0.34612630	-0.26270106	0.34612630	-0.68848035	-0.55870076	
420000000.0	-0.75403106	-0.45578733	-0.21820427	0.38854059	-0.21820427	0.38854059	-0.75403106	-0.45578733	
430000000.0	-0.80430891	-0.34534857	-0.16688492	0.42516467	-0.16688492	0.42516467	-0.80430891	-0.34534857	
440000000.0	-0.83847263	-0.22963757	-0.10950401	0.45490953	-0.10950401	0.45490953	-0.83847263	-0.22963757	
450000000.0	-0.85601151	-0.11099853	-0.04699451	0.47678672	-0.04699451	0.47678672	-0.85601151	-0.11099853	
460000000.0	-0.85675487	0.00818148	0.01955181	0.48993515	0.01955181	0.48993515	-0.85675487	0.00818148	
470000000.0	-0.84087465	0.12552162	0.08890183	0.49364618	0.08890183	0.49364618	-0.84087465	0.12552162	
480000000.0	-0.80888084	0.23869649	0.15970232	0.48738638	0.15970232	0.48738638	-0.80888084	0.23869649	
490000000.0	-0.76160988	0.34548412	0.23050482	0.47081735	0.23050482	0.47081735	-0.76160988	0.34548412	
500000000.0	-0.70020632	0.44381199	0.29979368	0.44381199	0.29979368	0.44381199	-0.70020632	0.44381199	
510000000.0	-0.62609787	0.53180005	0.36601684	0.40646681	0.36601684	0.40646681	-0.62609787	0.53180005	
520000000.0	-0.54096447	0.60779972	0.42761870	0.35910984	0.42761870	0.35910984	-0.54096447	0.60779972	
530000000.0	-0.44670194	0.67042818	0.48307455	0.30230363	0.48307455	0.30230363	-0.44670194	0.67042818	
540000000.0	-0.34538087	0.71859700	0.53092581	0.23684333	0.53092581	0.23684333	-0.34538087	0.71859700	
550000000.0	-0.23920168	0.75153469	0.56981532	0.16374944	0.56981532	0.16374944	-0.23920168	0.75153469	
560000000.0	-0.13044658	0.76880236	0.59852204	0.08425525	0.59852204	0.08425525	-0.13044658	0.76880236	
570000000.0	-0.02142974	0.77030233	0.61599425	-0.00021092	0.61599425	-0.00021092	-0.02142974	0.77030233	
580000000.0	0.08555367	0.75627922	0.62138046	-0.08804870	0.62138046	-0.08804870	0.08555367	0.75627922	
590000000.0	0.18827812	0.72731358	0.61405741	-0.17751348	0.61405741	-0.17751348	0.18827812	0.72731358	
600000000.0	0.28463718	0.68430792	0.59365417	-0.26674860	0.59365417	-0.26674860	0.28463718	0.68430792	
610000000.0	0.37269060	0.62846553	0.56007192	-0.35382172	0.56007192	-0.35382172	0.37269060	0.62846553	
620000000.0	0.45070790	0.56126232	0.51349842	-0.43676441	0.51349842	-0.43676441	0.45070790	0.56126232	
630000000.0	0.51720749	0.48441219	0.45441697	-0.51361454	0.45441697	-0.51361454	0.51720749	0.48441219	
640000000.0	0.57099041	0.39982675	0.38360910	-0.58246050	0.38360910	-0.58246050	0.57099041	0.39982675	
650000000.0	0.61116772	0.30957000	0.30215073	-0.64148652	0.30215073	-0.64148652	0.61116772	0.30957000	
660000000.0	0.63718082	0.21580908	0.21140153	-0.68901798	0.21140153	-0.68901798	0.63718082	0.21580908	
670000000.0	0.64881418	0.12076201	0.11298738	-0.72356592	0.11298738	-0.72356592	0.64881418	0.12076201	
680000000.0	0.64619989	0.02664374	0.00877590	-0.74386951	0.00877590	-0.74386951	0.64619989	0.02664374	
690000000.0	0.62981378	-0.06438845	-0.09915485	-0.74893556	-0.09915485	-0.74893556	0.62981378	-0.06438845	
700000000.0	0.60046304	-0.15028871	-0.20855396	-0.73807396	-0.20855396	-0.73807396	0.60046304	-0.15028871	
710000000.0	0.55926529	-0.22917438	-0.31704139	-0.71092806	-0.31704139	-0.71092806	0.55926529	-0.22917438	
720000000.0	0.50761956	-0.29937433	-0.42215693	-0.66749888	-0.42215693	-0.66749888	0.50761956	-0.29937433	
730000000.0	0.44716944	-0.35947254	-0.52141372	-0.60816243	-0.52141372	-0.60816243	0.44716944	-0.35947254	
740000000.0	0.37975931	-0.40834582	-0.61235539	-0.53367906	-0.61235539	-0.53367906	0.37975931	-0.40834582	
750000000.0	0.30738431	-0.44519429	-0.69261569	-0.44519429	-0.69261569	-0.44519429	0.30738431	-0.44519429	
760000000.0	0.23213535	-0.46956375	-0.75997935	-0.34423052	-0.75997935	-0.34423052	0.23213535	-0.46956375	
770000000.0	0.15614027	-0.48135892	-0.81244289	-0.23266903	-0.81244289	-0.23266903	0.15614027	-0.48135892	
780000000.0	0.08150272	-0.48084685	-0.84827377	-0.11272230	-0.84827377	-0.11272230	0.08150272	-0.48084685	
790000000.0	0.01024019	-0.46865004	-0.86606649	0.01310363	-0.86606649	0.01310363	0.01024019	-0.46865004	
800000000.0	-0.05577690	-0.44572892	-0.86479390	0.14205633	-0.86479390	0.14205633	-0.05577690	-0.44572892	
810000000.0	-0.11488339	-0.41335371	-0.84385202	0.27119340	-0.84385202	0.27119340	-0.11488339	-0.41335371	
820000000.0	-0.16567293	-0.37306602	-0.80309692	0.39744722	-0.80309692	0.39744722	-0.16567293	-0.37306602	
830000000.0	-0.20704507	-0.32663076	-0.74287187	0.51769716	-0.74287187	0.51769716	-0.20704507	-0.32663076	
840000000.0	-0.23824402	-0.27597929	-0.66402331	0.62884776	-0.66402331	0.62884776	-0.23824402	-0.27597929	
850000000.0	-0.25888740	-0.22314520	-0.56790439	0.72791132	-0.56790439	0.72791132	-0.25888740	-0.22314520	
860000000.0	-0.26898342	-0.17019426	-0.45636474	0.81209299	-0.45636474	0.81209299	-0.26898342	-0.17019426	
870000000.0	-0.26893528	-0.11915070	-0.33172580	0.87887603	-0.33172580	0.87887603	-0.26893528	-0.11915070	
880000000.0	-0.25953158	-0.07192189	-0.19674106	0.92610484	-0.19674106	0.92610484	-0.25953158	-0.07192189	
890000000.0	-0.24192249	-0.03022424	-0.05454117	0.95206301	-0.05454117	0.95206301	-0.24192249	-0.03022424	
900000000.0	-0.21758119	0.00448713	0.09143581	0.95554365	0.09143581	0.95554365	-0.21758119	0.00448713	
910000000.0	-0.18825126	0.03108180	0.23752803	0.93590885	0.23752803	0.93590885	-0.18825126	0.03108180	
920000000.0	-0.15588094	0.04880773	0.37994586	0.89313566	0.37994586	0.89313566	-0.15588094	0.04880773	
930000000.0	-0.12254582	0.05733237	0.51487817	0.82784561	0.51487817	0.82784561	-0.12254582	0.05733237	
940000000.0	-0.09036246	0.05676833	0.63860617	0.74131544	0.63860617	0.74131544	-0.09036246	0.05676833	
950000000.0	-0.06139566	0.04768171	0.74762133	0.63546696	0.74762133	0.63546696	-0.06139566	0.04768171	
960000000.0	-0.03756317	0.03108101	0.83874351	0.51283468	0.83874351	0.51283468	-0.03756317	0.03108101	
970000000.0	-0.02054166	0.00838589	0.90923483	0.37651044	0.90923483	0.37651044	-0.02054166	0.00838589	
980000000.0	-0.01167852	-0.01862442	0.95690464	0.23006547	0.95690464	0.23006547	-0.01167852	-0.01862442	
990000000.0	-0.01191405	-0.04788221	0.98020065	0.07745102	0.98020065	0.07745102	-0.01191405	-0.04788221	
1000000000.0	-0.02171842	-0.07711997	0.97828158	-0.07711997	0.97828158	-0.07711997	-0.02171842	-0.07711997	
1010000000.0	-0.04104775	-0.10397338	0.95106695	-0.22930661	0.95106695	-0.22930661	-0.04104775	-0.10397338	
1020000000.0	-0.06932283	-0.12609476	0.89926033	-0.37478465	0.89926033	-0.37478465	-0.06932283	-0.12609476	
1030000000.0	-0.10543294	-0.14127171	0.82434354	-0.50939626	0.82434354	-0.50939626	-0.10543294	-0.14127171	
1040000000.0	-0.14776643	-0.14754518	0.72854025	-0.62929885	0.72854025	-0.62929885	-0.14776643	-0.14754518	
1050000000.0	-0.19426799	-0.14332077	0.61474901	-0.73110602	0.61474901	-0.73110602	-0.19426799	-0.14332077	
1060000000.0	-0.24252103	-0.12746697	0.48644760	-0.81201408	0.48644760	-0.81201408	-0.24252103	-0.12746697	
1070000000.0	-0.28985230	-0.09939439	0.34757169	-0.86990764	0.34757169	-0.86990764	-0.28985230	-0.09939439	
1080000000.0	-0.33345387	-0.05911068	0.20237292	-0.90343861	0.20237292	-0.90343861	-0.33345387	-0.05911068	
1090000000.0	-0.37051691	-0.00724737	0.05526238	-0.91207442	0.05526238	-0.91207442	-0.37051691	-0.00724737	
1100000000.0	-0.39837020	0.05494411	-0.08935320	-0.89611240	-0.08935320	-0.89611240	-0.39837020	0.05494411	
1110000000.0	-0.41461614	0.12562780	-0.22723483	-0.85665945	-0.22723483	-0.85665945	-0.41461614	0.12562780	
1120000000.0	-0.41725689	0.20244892	-0.35446637	-0.79557781	-0.35446637	-0.79557781	-0.41725689	0.20244892	
1130000000.0	-0.40480345	0.28262696	-0.46759397	-0.71539977	-0.46759397	-0.71539977	-0.40480345	0.28262696	
1140000000.0	-0.37636189	0.36307148	-0.56374321	-0.61921577	-0.56374321	-0.61921577	-0.37636189	0.36307148	
1150000000.0	-0.33169192	0.44051474	-0.64070891	-0.51054178	-0.64070891	-0.51054178	-0.33169192	0.44051474	
1160000000.0	-0.27123469	0.51165403	-0.69701398	-0.39317302	-0.69701398	-0.39317302	-0.27123469	0.51165403	
1170000000.0	-0.19610868	0.57329662	-0.73193548	-0.27103131	-0.73193548	-0.27103131	-0.19610868	0.57329662	
1180000000.0	-0.10807427	0.62249963	-0.74549826	-0.14801361	-0.74549826	-0.14801361	-0.10807427	0.62249963	
1190000000.0	-0.00946922	0.65669821	-0.73843784	-0.02784890	-0.73843784	-0.02784890	-0.00946922	0.65669821	
1200000000.0	0.09688101	0.67381591	-0.71213598	0.08603066	-0.71213598	0.08603066	0.09688101	0.67381591	
1210000000.0	0.20777306	0.67235260	-0.66853362	0.19059892	-0.66853362	0.19059892	0.20777306	0.67235260	
1220000000.0	0.31974989	0.65144649	-0.61002660	0.28332194	-0.61002660	0.28332194	0.31974989	0.65144649	
1230000000.0	0.42923319	0.61090860	-0.53934997	0.36221872	-0.53934997	0.36221872	0.42923319	0.61090860	
1240000000.0	0.53265768	0.55122917	-0.45945702	0.42589594	-0.45945702	0.42589594	0.53265768	0.55122917	
1250000000.0	0.62660155	0.47355721	-0.37339845	0.47355721	-0.37339845	0.47355721	0.62660155	0.47355721	
1260000000.0	0.70790770	0.37965529	-0.28420701	0.50498852	-0.28420701	0.50498852	0.70790770	0.37965529	
1270000000.0	0.77379137	0.27183283	-0.19479180	0.52052272	-0.19479180	0.52052272	0.77379137	0.27183283	
1280000000.0	0.82193072	0.15286169	-0.10784577	0.52098624	-0.10784577	0.52098624	0.82193072	0.15286169	
1290000000.0	0.85053786	0.02587825	-0.02576882	0.50763192	-0.02576882	0.50763192	0.85053786	0.02587825	
1300000000.0	0.85840888	-0.10572339	0.04939189	0.48206187	0.04939189	0.48206187	0.85840888	-0.10572339	
1310000000.0	0.84495247	-0.23840288	0.11598384	0.44614423	0.11598384	0.44614423	0.84495247	-0.23840288	
1320000000.0	0.81019735	-0.36858554	0.17277336	0.40192771	0.17277336	0.40192771	0.81019735	-0.36858554	
1330000000.0	0.75477981	-0.49277085	0.21895302	0.35155707	0.21895302	0.35155707	0.75477981	-0.49277085	
1340000000.0	0.67991282	-0.60763436	0.25413353	0.29719269	0.25413353	0.29719269	0.67991282	-0.60763436	
1350000000.0	0.58733907	-0.71011999	0.27832208	0.24093653	0.27832208	0.24093653	0.58733907	-0.71011999	
1360000000.0	0.47927038	-0.79752077	0.29188906	0.18476648	0.29188906	0.18476648	0.47927038	-0.79752077	
1370000000.0	0.35831598	-0.86754615	0.29552546	0.13048057	0.29552546	0.13048057	0.35831598	-0.86754615	
1380000000.0	0.22740277	-0.91837484	0.29019329	0.07965188	0.29019329	0.07965188	0.22740277	-0.91837484	
1390000000.0	0.08968995	-0.94869268	0.27707127	0.03359457	0.27707127	0.03359457	0.08968995	-0.94869268	
1400000000.0	-0.05151898	-0.95771527	0.25749801	-0.00665876	0.25749801	-0.00665876	-0.05151898	-0.95771527	
1410000000.0	-0.19286464	-0.94519587	0.23291465	-0.04036882	0.23291465	-0.04036882	-0.19286464	-0.94519587	
1420000000.0	-0.33101800	-0.91141903	0.20480880	-0.06709110	0.20480880	-0.06709110	-0.33101800	-0.91141903	
1430000000.0	-0.46276254	-0.85718106	0.17466145	-0.08666782	0.17466145	-0.08666782	-0.46276254	-0.85718106	
1440000000.0	-0.58507052	-0.78375858	0.14389811	-0.09921147	0.14389811	-0.09921147	-0.58507052	-0.78375858	
1450000000.0	-0.69517166	-0.69286644	0.11384533	-0.10508119	0.11384533	-0.10508119	-0.69517166	-0.69286644	
1460000000.0	-0.79061323	-0.58660678	0.08569345	-0.10485311	0.08569345	-0.10485311	-0.79061323	-0.58660678	
1470000000.0	-0.86931036	-0.46741062	0.06046613	-0.09928607	0.06046613	-0.09928607	-0.86931036	-0.46741062	
1480000000.0	-0.92958608	-0.33797396	0.03899709	-0.08928408	0.03899709	-0.08928408	-0.92958608	-0.33797396	
1490000000.0	-0.97020054	-0.20118996	0.02191416	-0.07585673	0.02191416	-0.07585673	-0.97020054	-0.20118996	
1500000000.0	-0.99036937	-0.06007888	0.00963063	-0.06007888	0.00963063	-0.06007888	-0.99036937	-0.06007888	
