! https://github.com/szoftveres 
# Hz S RI R 50
450000000.0	0.24969952	0.98130483	0.08907944	-0.03960658	0.08907944	-0.03960658	0.24969952	0.98130483	
454000000.0	0.28026074	0.96775821	0.09640654	-0.04563291	0.09640654	-0.04563291	0.28026074	0.96775821	
458000000.0	0.30063840	0.94954592	0.10057016	-0.05422592	0.10057016	-0.05422592	0.30063840	0.94954592	
462000000.0	0.30234867	0.90149485	0.10852851	-0.06591124	0.10852851	-0.06591124	0.30234867	0.90149485	
466000000.0	0.34392458	0.91580998	0.10514124	-0.07083801	0.10514124	-0.07083801	0.34392458	0.91580998	
470000000.0	0.39313290	0.92417184	0.10944601	-0.08243251	0.10944601	-0.08243251	0.39313290	0.92417184	
474000000.0	0.43036448	0.92234989	0.11002967	-0.09370810	0.11002967	-0.09370810	0.43036448	0.92234989	
478000000.0	0.45530195	0.91443782	0.10885176	-0.10363362	0.10885176	-0.10363362	0.45530195	0.91443782	
482000000.0	0.48790698	0.89264909	0.11192895	-0.11831257	0.11192895	-0.11831257	0.48790698	0.89264909	
486000000.0	0.51656800	0.87290618	0.11281324	-0.13143249	0.11281324	-0.13143249	0.51656800	0.87290618	
490000000.0	0.54718061	0.86738995	0.11016939	-0.13919307	0.11016939	-0.13919307	0.54718061	0.86738995	
494000000.0	0.57390867	0.84515526	0.10800418	-0.15082643	0.10800418	-0.15082643	0.57390867	0.84515526	
498000000.0	0.59864448	0.81965120	0.10548528	-0.16308627	0.10548528	-0.16308627	0.59864448	0.81965120	
502000000.0	0.62541030	0.79882547	0.09931836	-0.17405706	0.09931836	-0.17405706	0.62541030	0.79882547	
506000000.0	0.65722336	0.77755194	0.09345792	-0.18757275	0.09345792	-0.18757275	0.65722336	0.77755194	
510000000.0	0.67388928	0.75278144	0.08871487	-0.19718045	0.08871487	-0.19718045	0.67388928	0.75278144	
514000000.0	0.69029549	0.72228173	0.08674241	-0.21030278	0.08674241	-0.21030278	0.69029549	0.72228173	
518000000.0	0.72130714	0.70284819	0.08057147	-0.21867142	0.08057147	-0.21867142	0.72130714	0.70284819	
522000000.0	0.73787642	0.67258592	0.07249335	-0.22905934	0.07249335	-0.22905934	0.73787642	0.67258592	
526000000.0	0.75356320	0.64433824	0.06919218	-0.23874349	0.06919218	-0.23874349	0.75356320	0.64433824	
530000000.0	0.76270816	0.61068653	0.05997356	-0.24716579	0.05997356	-0.24716579	0.76270816	0.61068653	
534000000.0	0.79183891	0.58172723	0.05476895	-0.25680450	0.05476895	-0.25680450	0.79183891	0.58172723	
538000000.0	0.80476474	0.54743142	0.04680594	-0.26611501	0.04680594	-0.26611501	0.80476474	0.54743142	
542000000.0	0.80821178	0.51064003	0.03871025	-0.27653683	0.03871025	-0.27653683	0.80821178	0.51064003	
546000000.0	0.82256960	0.47212870	0.03009823	-0.28706611	0.03009823	-0.28706611	0.82256960	0.47212870	
550000000.0	0.83882086	0.44256323	0.02559197	-0.29425488	0.02559197	-0.29425488	0.83882086	0.44256323	
554000000.0	0.84348256	0.40207901	0.01699050	-0.30724250	0.01699050	-0.30724250	0.84348256	0.40207901	
558000000.0	0.84305939	0.36573136	0.01053231	-0.31970269	0.01053231	-0.31970269	0.84305939	0.36573136	
562000000.0	0.85759117	0.33202026	0.00243325	-0.32848403	0.00243325	-0.32848403	0.85759117	0.33202026	
566000000.0	0.86351731	0.29454310	-0.00625478	-0.34182134	-0.00625478	-0.34182134	0.86351731	0.29454310	
570000000.0	0.85965709	0.25394406	-0.01685642	-0.35794704	-0.01685642	-0.35794704	0.85965709	0.25394406	
574000000.0	0.85650093	0.21047406	-0.02898411	-0.37465523	-0.02898411	-0.37465523	0.85650093	0.21047406	
578000000.0	0.85868646	0.17321542	-0.04074924	-0.38616189	-0.04074924	-0.38616189	0.85868646	0.17321542	
582000000.0	0.85132723	0.12948695	-0.05485246	-0.40616381	-0.05485246	-0.40616381	0.85132723	0.12948695	
586000000.0	0.83591930	0.09073489	-0.06982526	-0.42666979	-0.06982526	-0.42666979	0.83591930	0.09073489	
590000000.0	0.80864800	0.04736180	-0.09103596	-0.45441974	-0.09103596	-0.45441974	0.80864800	0.04736180	
594000000.0	0.77233248	0.00781713	-0.12057219	-0.48193754	-0.12057219	-0.48193754	0.77233248	0.00781713	
598000000.0	0.73372595	-0.03588206	-0.15555918	-0.51626915	-0.15555918	-0.51626915	0.73372595	-0.03588206	
602000000.0	0.76587514	-0.06532186	-0.15511968	-0.49929792	-0.15511968	-0.49929792	0.76587514	-0.06532186	
606000000.0	0.75859834	-0.10658756	-0.18428498	-0.51474304	-0.18428498	-0.51474304	0.75859834	-0.10658756	
610000000.0	0.73502042	-0.14461893	-0.21853635	-0.53478128	-0.21853635	-0.53478128	0.73502042	-0.14461893	
614000000.0	0.70241331	-0.17801114	-0.26034877	-0.55599130	-0.26034877	-0.55599130	0.70241331	-0.17801114	
618000000.0	0.67633696	-0.21011954	-0.30095917	-0.56753152	-0.30095917	-0.56753152	0.67633696	-0.21011954	
622000000.0	0.64558931	-0.24252698	-0.34519827	-0.57308595	-0.34519827	-0.57308595	0.64558931	-0.24252698	
626000000.0	0.61638810	-0.26992790	-0.39420797	-0.58341530	-0.39420797	-0.58341530	0.61638810	-0.26992790	
630000000.0	0.57610144	-0.29136582	-0.45340653	-0.58504237	-0.45340653	-0.58504237	0.57610144	-0.29136582	
634000000.0	0.54695322	-0.31768294	-0.50566691	-0.57093133	-0.50566691	-0.57093133	0.54695322	-0.31768294	
638000000.0	0.51392381	-0.33647968	-0.56111962	-0.55403258	-0.56111962	-0.55403258	0.51392381	-0.33647968	
642000000.0	0.47750934	-0.34964720	-0.62008186	-0.53548275	-0.62008186	-0.53548275	0.47750934	-0.34964720	
646000000.0	0.43941741	-0.36029379	-0.67763814	-0.50528682	-0.67763814	-0.50528682	0.43941741	-0.36029379	
650000000.0	0.40990342	-0.37254675	-0.71375149	-0.46763190	-0.71375149	-0.46763190	0.40990342	-0.37254675	
654000000.0	0.37289341	-0.37570422	-0.75606765	-0.42809747	-0.75606765	-0.42809747	0.37289341	-0.37570422	
658000000.0	0.33948944	-0.37582304	-0.79844845	-0.38883443	-0.79844845	-0.38883443	0.33948944	-0.37582304	
662000000.0	0.31083395	-0.38049738	-0.82900160	-0.33920650	-0.82900160	-0.33920650	0.31083395	-0.38049738	
666000000.0	0.28499133	-0.37632336	-0.85239098	-0.28885142	-0.85239098	-0.28885142	0.28499133	-0.37632336	
670000000.0	0.25962070	-0.37274163	-0.88144979	-0.24010459	-0.88144979	-0.24010459	0.25962070	-0.37274163	
674000000.0	0.23474776	-0.36255254	-0.90609517	-0.19036352	-0.90609517	-0.19036352	0.23474776	-0.36255254	
678000000.0	0.21869074	-0.36128611	-0.90655181	-0.14479178	-0.90655181	-0.14479178	0.21869074	-0.36128611	
682000000.0	0.20110216	-0.35535731	-0.91088224	-0.09841484	-0.91088224	-0.09841484	0.20110216	-0.35535731	
686000000.0	0.18174661	-0.34550464	-0.91964832	-0.05309123	-0.91964832	-0.05309123	0.18174661	-0.34550464	
690000000.0	0.16774146	-0.34140650	-0.91884698	-0.00868794	-0.91884698	-0.00868794	0.16774146	-0.34140650	
694000000.0	0.15621594	-0.33803120	-0.90948557	0.03435743	-0.90948557	0.03435743	0.15621594	-0.33803120	
698000000.0	0.14947510	-0.32982163	-0.90305523	0.07411834	-0.90305523	0.07411834	0.14947510	-0.32982163	
702000000.0	0.14145456	-0.32376525	-0.90370413	0.11453598	-0.90370413	0.11453598	0.14145456	-0.32376525	
706000000.0	0.12726194	-0.31942653	-0.88896314	0.15359958	-0.88896314	0.15359958	0.12726194	-0.31942653	
710000000.0	0.12401155	-0.31597658	-0.87474182	0.18744710	-0.87474182	0.18744710	0.12401155	-0.31597658	
714000000.0	0.11030824	-0.31273357	-0.87097267	0.22457437	-0.87097267	0.22457437	0.11030824	-0.31273357	
718000000.0	0.10371878	-0.31034058	-0.86248781	0.25669930	-0.86248781	0.25669930	0.10371878	-0.31034058	
722000000.0	0.09811696	-0.30612493	-0.83756038	0.28407866	-0.83756038	0.28407866	0.09811696	-0.30612493	
726000000.0	0.09296754	-0.30655248	-0.82280416	0.30974291	-0.82280416	0.30974291	0.09296754	-0.30655248	
730000000.0	0.08136758	-0.30631123	-0.81609306	0.33508547	-0.81609306	0.33508547	0.08136758	-0.30631123	
734000000.0	0.07686532	-0.30626963	-0.79314822	0.35721347	-0.79314822	0.35721347	0.07686532	-0.30626963	
738000000.0	0.06289973	-0.31127933	-0.77774048	0.37764982	-0.77774048	0.37764982	0.06289973	-0.31127933	
742000000.0	0.05440859	-0.31230704	-0.76271859	0.39664947	-0.76271859	0.39664947	0.05440859	-0.31230704	
746000000.0	0.04531660	-0.30683254	-0.75124717	0.42282275	-0.75124717	0.42282275	0.04531660	-0.30683254	
750000000.0	0.03052972	-0.30955869	-0.73707610	0.43937040	-0.73707610	0.43937040	0.03052972	-0.30955869	
754000000.0	0.02331998	-0.31022973	-0.72355104	0.45843603	-0.72355104	0.45843603	0.02331998	-0.31022973	
758000000.0	0.01016181	-0.31452074	-0.72019264	0.47828320	-0.72019264	0.47828320	0.01016181	-0.31452074	
762000000.0	-0.00381739	-0.31199725	-0.71021139	0.50281155	-0.71021139	0.50281155	-0.00381739	-0.31199725	
766000000.0	-0.01033153	-0.31057766	-0.69042950	0.51352954	-0.69042950	0.51352954	-0.01033153	-0.31057766	
770000000.0	-0.02812140	-0.31137094	-0.68694842	0.53225274	-0.68694842	0.53225274	-0.02812140	-0.31137094	
774000000.0	-0.03488401	-0.30007853	-0.67710611	0.55625261	-0.67710611	0.55625261	-0.03488401	-0.30007853	
778000000.0	-0.04736439	-0.29800230	-0.66054592	0.57254451	-0.66054592	0.57254451	-0.04736439	-0.29800230	
782000000.0	-0.06098704	-0.29352170	-0.64424467	0.59061190	-0.64424467	0.59061190	-0.06098704	-0.29352170	
786000000.0	-0.07721281	-0.29108163	-0.63912429	0.60879386	-0.63912429	0.60879386	-0.07721281	-0.29108163	
790000000.0	-0.09008652	-0.28188454	-0.63192077	0.63555258	-0.63192077	0.63555258	-0.09008652	-0.28188454	
794000000.0	-0.10201714	-0.27501680	-0.61122880	0.64811328	-0.61122880	0.64811328	-0.10201714	-0.27501680	
798000000.0	-0.12020814	-0.26511627	-0.60259142	0.66749715	-0.60259142	0.66749715	-0.12020814	-0.26511627	
802000000.0	-0.13272049	-0.25348834	-0.59293709	0.69298822	-0.59293709	0.69298822	-0.13272049	-0.25348834	
806000000.0	-0.14414496	-0.23782819	-0.57643616	0.71851808	-0.57643616	0.71851808	-0.14414496	-0.23782819	
810000000.0	-0.14950328	-0.23394312	-0.55540877	0.73341888	-0.55540877	0.73341888	-0.14950328	-0.23394312	
814000000.0	-0.16295693	-0.22568019	-0.54725850	0.75993178	-0.54725850	0.75993178	-0.16295693	-0.22568019	
818000000.0	-0.17533936	-0.20944280	-0.53364016	0.79788307	-0.53364016	0.79788307	-0.17533936	-0.20944280	
822000000.0	-0.17649517	-0.19411509	-0.49817894	0.81149459	-0.49817894	0.81149459	-0.17649517	-0.19411509	
826000000.0	-0.18353461	-0.18911211	-0.48056352	0.82488595	-0.48056352	0.82488595	-0.18353461	-0.18911211	
830000000.0	-0.19128894	-0.16917485	-0.45650074	0.85486099	-0.45650074	0.85486099	-0.19128894	-0.16917485	
834000000.0	-0.19114266	-0.15384110	-0.42628266	0.87641933	-0.42628266	0.87641933	-0.19114266	-0.15384110	
838000000.0	-0.20290971	-0.14748155	-0.40679091	0.88151834	-0.40679091	0.88151834	-0.20290971	-0.14748155	
842000000.0	-0.20334354	-0.13137668	-0.37776598	0.89560032	-0.37776598	0.89560032	-0.20334354	-0.13137668	
846000000.0	-0.21080699	-0.12050002	-0.36183408	0.91739162	-0.36183408	0.91739162	-0.21080699	-0.12050002	
850000000.0	-0.21418299	-0.11443717	-0.33237296	0.92228147	-0.33237296	0.92228147	-0.21418299	-0.11443717	
